Vgs,Vds,Ids
-1.00000000,-0.00018395,-0.00000005
-1.00000000,0.09992775,0.00000000
-1.00000000,0.20000616,-0.00000004
-1.00000000,0.30008867,-0.00000004
-1.00000000,0.40017385,-0.00000009
-1.00000000,0.49974007,0.00000000
-1.00000000,0.59988004,0.00000001
-1.00000000,0.69997299,-0.00000003
-1.00000000,0.80004102,0.00000000
-1.00000000,0.90012379,-0.00000005
-1.00000000,1.00020760,-0.00000000
-1.00000000,1.09985140,-0.00000006
-1.00000000,1.19993260,-0.00000000
-1.00000000,1.30001380,-0.00000002
-1.00000000,1.40008510,-0.00000001
-1.00000000,1.50017960,-0.00000004
-1.00000000,1.60030140,-0.00000002
-1.00000000,1.69987860,-0.00000002
-1.00000000,1.79995900,-0.00000001
-1.00000000,1.90003150,-0.00000002
-1.00000000,2.00011710,0.00000000
-1.00000000,2.10019860,-0.00000005
-1.00000000,2.20021260,-0.00000005
-1.00000000,2.29979270,-0.00000002
-1.00000000,2.39984960,0.00000001
-1.00000000,2.49993770,-0.00000003
-1.00000000,2.60002850,-0.00000003
-1.00000000,2.70017110,-0.00000004
-1.00000000,2.80025150,-0.00000000
-1.00000000,2.89981180,-0.00000002
-1.00000000,2.99989370,-0.00000005
-1.00000000,3.09997920,-0.00000001
-1.00000000,3.20013080,0.00000005
-1.00000000,3.30020490,0.00000006
-1.00000000,3.39977430,-0.00000002
-1.00000000,3.49986110,0.00000004
-1.00000000,3.59994420,0.00000001
-1.00000000,3.70002460,0.00000000
-1.00000000,3.80016200,0.00000002
-1.00000000,3.90025050,0.00000003
-1.00000000,3.99980300,-0.00000002
-1.00000000,4.09987950,-0.00000003
-1.00000000,4.19995880,0.00000000
-1.00000000,4.29991600,0.00000003
-1.00000000,4.40001950,0.00000004
-1.00000000,4.50010250,0.00000002
-1.00000000,4.59966020,-0.00000001
-1.00000000,4.69975250,-0.00000001
-1.00000000,4.79988220,-0.00000004
-1.00000000,4.89997430,0.00000000
-1.00000000,5.00005740,0.00000001
-0.90000000,-0.00017869,-0.00000003
-0.90000000,0.09992978,0.00000006
-0.90000000,0.20000681,-0.00000002
-0.90000000,0.30008933,0.00000003
-0.90000000,0.40017451,-0.00000002
-0.90000000,0.49973797,-0.00000000
-0.90000000,0.59988161,-0.00000000
-0.90000000,0.69996972,0.00000001
-0.90000000,0.80004286,0.00000000
-0.90000000,0.90011973,-0.00000002
-0.90000000,1.00020780,-0.00000002
-0.90000000,1.09984950,0.00000002
-0.90000000,1.19993330,-0.00000004
-0.90000000,1.30001630,0.00000005
-0.90000000,1.40008640,-0.00000001
-0.90000000,1.50017960,0.00000005
-0.90000000,1.60030140,0.00000000
-0.90000000,1.69987730,0.00000003
-0.90000000,1.79996420,0.00000002
-0.90000000,1.90003280,-0.00000001
-0.90000000,2.00012100,0.00000000
-0.90000000,2.10019730,-0.00000008
-0.90000000,2.20021910,-0.00000000
-0.90000000,2.29979270,0.00000002
-0.90000000,2.39985090,-0.00000000
-0.90000000,2.49994030,-0.00000003
-0.90000000,2.60002850,-0.00000002
-0.90000000,2.70017370,0.00000000
-0.90000000,2.80025150,0.00000001
-0.90000000,2.89981050,0.00000000
-0.90000000,2.99989880,0.00000001
-0.90000000,3.09998310,0.00000000
-0.90000000,3.20013340,0.00000002
-0.90000000,3.30021140,0.00000000
-0.90000000,3.39977820,-0.00000000
-0.90000000,3.49985850,-0.00000001
-0.90000000,3.59994550,0.00000001
-0.90000000,3.70002330,-0.00000002
-0.90000000,3.80016070,0.00000005
-0.90000000,3.90025050,0.00000002
-0.90000000,3.99980690,0.00000001
-0.90000000,4.09987950,-0.00000000
-0.90000000,4.19996260,-0.00000001
-0.90000000,4.29991990,0.00000005
-0.90000000,4.40002470,0.00000004
-0.90000000,4.50009990,0.00000000
-0.90000000,4.59966410,-0.00000004
-0.90000000,4.69975900,-0.00000001
-0.90000000,4.79988090,0.00000008
-0.90000000,4.89997170,-0.00000000
-0.90000000,5.00005870,0.00000002
-0.80000000,-0.00017755,0.00000002
-0.80000000,0.09993120,-0.00000001
-0.80000000,0.20000616,-0.00000005
-0.80000000,0.30008946,-0.00000002
-0.80000000,0.40017490,0.00000001
-0.80000000,0.49974046,-0.00000002
-0.80000000,0.59987912,-0.00000003
-0.80000000,0.69997351,0.00000005
-0.80000000,0.80004482,-0.00000001
-0.80000000,0.90012313,-0.00000001
-0.80000000,1.00020400,-0.00000002
-0.80000000,1.09984870,0.00000002
-0.80000000,1.19993430,0.00000007
-0.80000000,1.30001630,-0.00000002
-0.80000000,1.40009030,0.00000001
-0.80000000,1.50017830,-0.00000003
-0.80000000,1.60030790,-0.00000009
-0.80000000,1.69987470,-0.00000002
-0.80000000,1.79996550,-0.00000003
-0.80000000,1.90003280,0.00000003
-0.80000000,2.00012100,0.00000003
-0.80000000,2.10019860,0.00000000
-0.80000000,2.20021650,-0.00000002
-0.80000000,2.29979140,0.00000002
-0.80000000,2.39985350,-0.00000001
-0.80000000,2.49994030,-0.00000005
-0.80000000,2.60002590,-0.00000002
-0.80000000,2.70016980,0.00000002
-0.80000000,2.80025410,-0.00000001
-0.80000000,2.89981830,0.00000001
-0.80000000,2.99989370,0.00000006
-0.80000000,3.09998050,0.00000002
-0.80000000,3.20013080,0.00000006
-0.80000000,3.30020750,-0.00000001
-0.80000000,3.39977430,-0.00000004
-0.80000000,3.49985720,0.00000001
-0.80000000,3.59994420,-0.00000002
-0.80000000,3.70002330,-0.00000000
-0.80000000,3.80016200,0.00000000
-0.80000000,3.90025820,0.00000003
-0.80000000,3.99980820,0.00000002
-0.80000000,4.09987950,0.00000006
-0.80000000,4.19996520,-0.00000005
-0.80000000,4.29991730,-0.00000000
-0.80000000,4.40002080,0.00000001
-0.80000000,4.50009340,-0.00000003
-0.80000000,4.59966020,0.00000002
-0.80000000,4.69975380,-0.00000001
-0.80000000,4.79988350,-0.00000002
-0.80000000,4.89996910,-0.00000001
-0.80000000,5.00005990,0.00000002
-0.70000000,-0.00017835,-0.00000004
-0.70000000,0.09992730,0.00000000
-0.70000000,0.20001035,0.00000000
-0.70000000,0.30008972,-0.00000001
-0.70000000,0.40017490,-0.00000003
-0.70000000,0.49973823,0.00000003
-0.70000000,0.59988069,0.00000008
-0.70000000,0.69996998,0.00000000
-0.70000000,0.80004273,0.00000002
-0.70000000,0.90011986,-0.00000005
-0.70000000,1.00020850,-0.00000005
-0.70000000,1.09985080,0.00000000
-0.70000000,1.19993300,-0.00000002
-0.70000000,1.30001500,0.00000000
-0.70000000,1.40008900,-0.00000003
-0.70000000,1.50018090,0.00000000
-0.70000000,1.60030270,-0.00000005
-0.70000000,1.69987990,-0.00000002
-0.70000000,1.79995900,-0.00000002
-0.70000000,1.90003150,-0.00000002
-0.70000000,2.00012100,0.00000000
-0.70000000,2.10019860,0.00000003
-0.70000000,2.20021910,0.00000000
-0.70000000,2.29979660,-0.00000002
-0.70000000,2.39985220,0.00000002
-0.70000000,2.49994290,0.00000002
-0.70000000,2.60002850,-0.00000003
-0.70000000,2.70016980,-0.00000007
-0.70000000,2.80025670,-0.00000001
-0.70000000,2.89980920,0.00000003
-0.70000000,2.99989490,-0.00000001
-0.70000000,3.09998050,0.00000005
-0.70000000,3.20012950,0.00000001
-0.70000000,3.30020750,0.00000005
-0.70000000,3.39977300,0.00000002
-0.70000000,3.49985590,-0.00000000
-0.70000000,3.59994160,0.00000000
-0.70000000,3.70001820,0.00000007
-0.70000000,3.80015940,0.00000001
-0.70000000,3.90025430,-0.00000004
-0.70000000,3.99980560,0.00000000
-0.70000000,4.09987820,-0.00000001
-0.70000000,4.19996390,0.00000000
-0.70000000,4.29991470,0.00000003
-0.70000000,4.40002080,0.00000003
-0.70000000,4.50009600,-0.00000003
-0.70000000,4.59966020,0.00000002
-0.70000000,4.69974990,0.00000004
-0.70000000,4.79988350,0.00000002
-0.70000000,4.89997170,-0.00000002
-0.70000000,5.00005480,-0.00000007
-0.60000000,-0.00017697,0.00000001
-0.60000000,0.09993289,0.00000002
-0.60000000,0.20000550,0.00000003
-0.60000000,0.30008710,-0.00000001
-0.60000000,0.40017595,0.00000003
-0.60000000,0.49973784,0.00000000
-0.60000000,0.59988213,0.00000003
-0.60000000,0.69997142,-0.00000007
-0.60000000,0.80004364,-0.00000001
-0.60000000,0.90012313,-0.00000001
-0.60000000,1.00020790,0.00000000
-0.60000000,1.09984850,-0.00000005
-0.60000000,1.19993420,0.00000001
-0.60000000,1.30001500,0.00000000
-0.60000000,1.40008770,0.00000001
-0.60000000,1.50017830,0.00000001
-0.60000000,1.60030660,0.00000002
-0.60000000,1.69987990,-0.00000005
-0.60000000,1.79996550,0.00000004
-0.60000000,1.90003020,-0.00000002
-0.60000000,2.00012100,0.00000001
-0.60000000,2.10019860,0.00000000
-0.60000000,2.20022040,-0.00000001
-0.60000000,2.29979530,-0.00000001
-0.60000000,2.39985350,-0.00000003
-0.60000000,2.49993900,-0.00000003
-0.60000000,2.60002980,0.00000001
-0.60000000,2.70017370,0.00000004
-0.60000000,2.80025540,0.00000000
-0.60000000,2.89981180,0.00000002
-0.60000000,2.99989490,0.00000001
-0.60000000,3.09998440,0.00000000
-0.60000000,3.20013340,-0.00000002
-0.60000000,3.30021010,0.00000002
-0.60000000,3.39977430,-0.00000003
-0.60000000,3.49986370,-0.00000002
-0.60000000,3.59994420,-0.00000000
-0.60000000,3.70002460,-0.00000002
-0.60000000,3.80016330,-0.00000005
-0.60000000,3.90025560,0.00000001
-0.60000000,3.99979650,-0.00000004
-0.60000000,4.09987430,-0.00000003
-0.60000000,4.19996390,0.00000004
-0.60000000,4.29991600,0.00000008
-0.60000000,4.40001820,0.00000002
-0.60000000,4.50009210,0.00000001
-0.60000000,4.59966280,0.00000000
-0.60000000,4.69975380,0.00000002
-0.60000000,4.79988220,-0.00000000
-0.60000000,4.89996910,-0.00000001
-0.60000000,5.00005350,-0.00000000
-0.50000000,-0.00017947,-0.00000002
-0.50000000,0.09992919,-0.00000001
-0.50000000,0.20000550,0.00000002
-0.50000000,0.30008632,-0.00000000
-0.50000000,0.40017320,0.00000003
-0.50000000,0.49973719,-0.00000003
-0.50000000,0.59987703,0.00000001
-0.50000000,0.69996958,0.00000003
-0.50000000,0.80004377,0.00000000
-0.50000000,0.90012287,-0.00000001
-0.50000000,1.00020490,0.00000004
-0.50000000,1.09984860,-0.00000004
-0.50000000,1.19993220,-0.00000002
-0.50000000,1.30001500,-0.00000004
-0.50000000,1.40008770,0.00000002
-0.50000000,1.50017960,0.00000000
-0.50000000,1.60030790,0.00000005
-0.50000000,1.69987860,0.00000001
-0.50000000,1.79996550,0.00000002
-0.50000000,1.90003150,-0.00000003
-0.50000000,2.00012230,-0.00000001
-0.50000000,2.10019350,-0.00000008
-0.50000000,2.20021910,-0.00000003
-0.50000000,2.29979140,0.00000006
-0.50000000,2.39985220,-0.00000002
-0.50000000,2.49993900,0.00000005
-0.50000000,2.60002460,-0.00000001
-0.50000000,2.70016980,-0.00000003
-0.50000000,2.80025280,-0.00000003
-0.50000000,2.89981310,-0.00000001
-0.50000000,2.99989240,-0.00000000
-0.50000000,3.09998050,0.00000003
-0.50000000,3.20012690,-0.00000007
-0.50000000,3.30021140,0.00000002
-0.50000000,3.39977560,0.00000002
-0.50000000,3.49985980,0.00000003
-0.50000000,3.59994420,0.00000009
-0.50000000,3.70002460,0.00000000
-0.50000000,3.80015690,-0.00000001
-0.50000000,3.90025690,0.00000005
-0.50000000,3.99980690,-0.00000003
-0.50000000,4.09987950,-0.00000003
-0.50000000,4.19996010,0.00000000
-0.50000000,4.29991600,0.00000005
-0.50000000,4.40002080,0.00000003
-0.50000000,4.50009600,-0.00000006
-0.50000000,4.59966020,0.00000000
-0.50000000,4.69975120,-0.00000004
-0.50000000,4.79988090,-0.00000000
-0.50000000,4.89997040,-0.00000005
-0.50000000,5.00005740,0.00000000
-0.40000000,-0.00017981,0.00000004
-0.40000000,0.09992904,0.00000002
-0.40000000,0.20000446,-0.00000006
-0.40000000,0.30008592,0.00000000
-0.40000000,0.40017595,0.00000000
-0.40000000,0.49973836,-0.00000007
-0.40000000,0.59988226,0.00000000
-0.40000000,0.69997233,0.00000002
-0.40000000,0.80004155,-0.00000001
-0.40000000,0.90012287,0.00000001
-0.40000000,1.00020850,0.00000004
-0.40000000,1.09985250,-0.00000001
-0.40000000,1.19993430,-0.00000003
-0.40000000,1.30001890,0.00000002
-0.40000000,1.40008770,-0.00000002
-0.40000000,1.50018220,-0.00000003
-0.40000000,1.60030920,-0.00000003
-0.40000000,1.69987730,-0.00000003
-0.40000000,1.79996420,-0.00000002
-0.40000000,1.90003280,0.00000000
-0.40000000,2.00011840,0.00000001
-0.40000000,2.10019860,0.00000000
-0.40000000,2.20022430,0.00000003
-0.40000000,2.29978880,-0.00000003
-0.40000000,2.39985090,0.00000004
-0.40000000,2.49994290,-0.00000003
-0.40000000,2.60002720,-0.00000003
-0.40000000,2.70017110,-0.00000007
-0.40000000,2.80025540,-0.00000000
-0.40000000,2.89981310,0.00000001
-0.40000000,2.99989370,-0.00000004
-0.40000000,3.09998050,0.00000000
-0.40000000,3.20013210,0.00000003
-0.40000000,3.30021270,0.00000003
-0.40000000,3.39977940,0.00000001
-0.40000000,3.49985980,-0.00000002
-0.40000000,3.59994550,0.00000000
-0.40000000,3.70002590,-0.00000006
-0.40000000,3.80016460,-0.00000002
-0.40000000,3.90025690,0.00000001
-0.40000000,3.99980300,0.00000003
-0.40000000,4.09988080,-0.00000006
-0.40000000,4.19996260,0.00000002
-0.40000000,4.29991600,0.00000002
-0.40000000,4.40002340,0.00000001
-0.40000000,4.50009860,0.00000009
-0.40000000,4.59966410,0.00000001
-0.40000000,4.69975250,0.00000002
-0.40000000,4.79988090,0.00000004
-0.40000000,4.89997430,-0.00000001
-0.40000000,5.00005740,0.00000003
-0.30000000,-0.00017601,0.00000000
-0.30000000,0.09993133,-0.00000004
-0.30000000,0.20000734,-0.00000000
-0.30000000,0.30009351,0.00000003
-0.30000000,0.40017595,-0.00000006
-0.30000000,0.49974177,0.00000003
-0.30000000,0.59988213,-0.00000002
-0.30000000,0.69997403,-0.00000003
-0.30000000,0.80004783,0.00000000
-0.30000000,0.90012287,0.00000003
-0.30000000,1.00020830,-0.00000003
-0.30000000,1.09985240,-0.00000003
-0.30000000,1.19993260,-0.00000005
-0.30000000,1.30001630,-0.00000006
-0.30000000,1.40008900,-0.00000004
-0.30000000,1.50017700,0.00000002
-0.30000000,1.60030660,-0.00000004
-0.30000000,1.69987600,-0.00000001
-0.30000000,1.79996680,0.00000001
-0.30000000,1.90003410,0.00000001
-0.30000000,2.00011840,0.00000004
-0.30000000,2.10019600,-0.00000004
-0.30000000,2.20021650,0.00000002
-0.30000000,2.29978880,-0.00000001
-0.30000000,2.39984960,0.00000004
-0.30000000,2.49993900,0.00000000
-0.30000000,2.60002330,-0.00000001
-0.30000000,2.70016850,0.00000000
-0.30000000,2.80025280,0.00000003
-0.30000000,2.89981180,0.00000001
-0.30000000,2.99989370,-0.00000003
-0.30000000,3.09997790,0.00000003
-0.30000000,3.20012690,-0.00000002
-0.30000000,3.30020880,0.00000001
-0.30000000,3.39977690,0.00000001
-0.30000000,3.49985590,-0.00000003
-0.30000000,3.59994940,-0.00000001
-0.30000000,3.70002330,-0.00000001
-0.30000000,3.80016070,0.00000001
-0.30000000,3.90025430,0.00000001
-0.30000000,3.99980300,-0.00000002
-0.30000000,4.09988080,-0.00000001
-0.30000000,4.19996390,0.00000001
-0.30000000,4.29991730,-0.00000005
-0.30000000,4.40002340,-0.00000003
-0.30000000,4.50010120,0.00000004
-0.30000000,4.59966150,-0.00000003
-0.30000000,4.69975250,0.00000001
-0.30000000,4.79988220,-0.00000000
-0.30000000,4.89997300,0.00000005
-0.30000000,5.00005350,0.00000000
-0.20000000,-0.00017706,-0.00000005
-0.20000000,0.09992906,-0.00000006
-0.20000000,0.20000668,-0.00000003
-0.20000000,0.30008776,-0.00000003
-0.20000000,0.40017490,0.00000006
-0.20000000,0.49973810,0.00000001
-0.20000000,0.59987977,-0.00000003
-0.20000000,0.69996919,-0.00000002
-0.20000000,0.80003998,-0.00000002
-0.20000000,0.90012026,-0.00000002
-0.20000000,1.00020640,-0.00000004
-0.20000000,1.09984780,-0.00000001
-0.20000000,1.19993370,0.00000001
-0.20000000,1.30001380,-0.00000002
-0.20000000,1.40008640,-0.00000005
-0.20000000,1.50017700,-0.00000005
-0.20000000,1.60031050,-0.00000002
-0.20000000,1.69987860,-0.00000002
-0.20000000,1.79996550,0.00000001
-0.20000000,1.90003150,-0.00000003
-0.20000000,2.00012100,0.00000000
-0.20000000,2.10019730,-0.00000000
-0.20000000,2.20022040,-0.00000001
-0.20000000,2.29979010,-0.00000003
-0.20000000,2.39984960,0.00000001
-0.20000000,2.49993900,-0.00000000
-0.20000000,2.60002980,-0.00000000
-0.20000000,2.70017370,0.00000000
-0.20000000,2.80025150,-0.00000004
-0.20000000,2.89981570,0.00000000
-0.20000000,2.99989490,-0.00000001
-0.20000000,3.09997920,0.00000006
-0.20000000,3.20013080,0.00000004
-0.20000000,3.30021010,-0.00000001
-0.20000000,3.39977690,0.00000003
-0.20000000,3.49985720,0.00000004
-0.20000000,3.59994810,-0.00000004
-0.20000000,3.70001950,-0.00000002
-0.20000000,3.80016330,0.00000004
-0.20000000,3.90025300,0.00000005
-0.20000000,3.99980300,-0.00000003
-0.20000000,4.09987690,0.00000002
-0.20000000,4.19996010,0.00000006
-0.20000000,4.29991470,-0.00000000
-0.20000000,4.40001950,-0.00000004
-0.20000000,4.50010120,0.00000000
-0.20000000,4.59966020,-0.00000004
-0.20000000,4.69974860,-0.00000004
-0.20000000,4.79988220,-0.00000001
-0.20000000,4.89997040,0.00000006
-0.20000000,5.00005480,-0.00000002
-0.10000000,-0.00017647,-0.00000000
-0.10000000,0.09992850,-0.00000000
-0.10000000,0.20000603,0.00000004
-0.10000000,0.30008972,0.00000003
-0.10000000,0.40017385,0.00000001
-0.10000000,0.49973614,0.00000004
-0.10000000,0.59988043,0.00000005
-0.10000000,0.69997286,0.00000001
-0.10000000,0.80004102,0.00000004
-0.10000000,0.90012549,0.00000005
-0.10000000,1.00020880,0.00000002
-0.10000000,1.09985020,0.00000008
-0.10000000,1.19993380,-0.00000001
-0.10000000,1.30001500,-0.00000002
-0.10000000,1.40008770,0.00000001
-0.10000000,1.50018350,0.00000000
-0.10000000,1.60030400,0.00000004
-0.10000000,1.69987340,0.00000001
-0.10000000,1.79996160,-0.00000004
-0.10000000,1.90003540,-0.00000006
-0.10000000,2.00011580,0.00000001
-0.10000000,2.10019600,0.00000000
-0.10000000,2.20021910,0.00000006
-0.10000000,2.29978750,-0.00000001
-0.10000000,2.39984700,-0.00000002
-0.10000000,2.49994030,0.00000000
-0.10000000,2.60002460,0.00000001
-0.10000000,2.70016850,0.00000006
-0.10000000,2.80025150,0.00000000
-0.10000000,2.89981180,0.00000003
-0.10000000,2.99989750,0.00000003
-0.10000000,3.09998180,-0.00000002
-0.10000000,3.20012950,0.00000001
-0.10000000,3.30020620,0.00000001
-0.10000000,3.39977430,0.00000000
-0.10000000,3.49985590,0.00000007
-0.10000000,3.59994290,0.00000005
-0.10000000,3.70002200,0.00000002
-0.10000000,3.80016070,0.00000000
-0.10000000,3.90025050,0.00000003
-0.10000000,3.99980170,0.00000006
-0.10000000,4.09988080,0.00000001
-0.10000000,4.19996260,0.00000000
-0.10000000,4.29991860,0.00000001
-0.10000000,4.40001950,0.00000000
-0.10000000,4.50009340,0.00000002
-0.10000000,4.59965890,0.00000000
-0.10000000,4.69975510,0.00000003
-0.10000000,4.79988220,0.00000002
-0.10000000,4.89997170,-0.00000000
-0.10000000,5.00005610,0.00000003
0.00000000,-0.00017799,-0.00000004
0.00000000,0.09992730,0.00000023
0.00000000,0.20000341,0.00000021
0.00000000,0.30008592,0.00000022
0.00000000,0.40017071,0.00000023
0.00000000,0.49973496,0.00000028
0.00000000,0.59988291,0.00000023
0.00000000,0.69996828,0.00000024
0.00000000,0.80004089,0.00000027
0.00000000,0.90011908,0.00000020
0.00000000,1.00020280,0.00000023
0.00000000,1.09984820,0.00000023
0.00000000,1.19993040,0.00000024
0.00000000,1.30001250,0.00000029
0.00000000,1.40008120,0.00000030
0.00000000,1.50017310,0.00000026
0.00000000,1.60030400,0.00000027
0.00000000,1.69987600,0.00000028
0.00000000,1.79995770,0.00000029
0.00000000,1.90003150,0.00000027
0.00000000,2.00011840,0.00000025
0.00000000,2.10018960,0.00000027
0.00000000,2.20021650,0.00000027
0.00000000,2.29978750,0.00000030
0.00000000,2.39984830,0.00000033
0.00000000,2.49993770,0.00000033
0.00000000,2.60002720,0.00000028
0.00000000,2.70016980,0.00000033
0.00000000,2.80025410,0.00000026
0.00000000,2.89981310,0.00000029
0.00000000,2.99989240,0.00000029
0.00000000,3.09997790,0.00000030
0.00000000,3.20012950,0.00000027
0.00000000,3.30020620,0.00000025
0.00000000,3.39978070,0.00000028
0.00000000,3.49986110,0.00000030
0.00000000,3.59994550,0.00000028
0.00000000,3.70002200,0.00000033
0.00000000,3.80016200,0.00000030
0.00000000,3.90025180,0.00000031
0.00000000,3.99980560,0.00000031
0.00000000,4.09987430,0.00000032
0.00000000,4.19996010,0.00000035
0.00000000,4.29991730,0.00000032
0.00000000,4.40001950,0.00000032
0.00000000,4.50010120,0.00000038
0.00000000,4.59965760,0.00000038
0.00000000,4.69974860,0.00000033
0.00000000,4.79988220,0.00000031
0.00000000,4.89997040,0.00000037
0.00000000,5.00004960,0.00000036
0.10000000,-0.00017658,-0.00000004
0.10000000,0.09991867,0.00000181
0.10000000,0.19999504,0.00000193
0.10000000,0.30007807,0.00000202
0.10000000,0.40016234,0.00000212
0.10000000,0.49972515,0.00000215
0.10000000,0.59986944,0.00000221
0.10000000,0.69995859,0.00000220
0.10000000,0.80002990,0.00000223
0.10000000,0.90010704,0.00000228
0.10000000,1.00019130,0.00000234
0.10000000,1.09983490,0.00000237
0.10000000,1.19992060,0.00000240
0.10000000,1.30000340,0.00000242
0.10000000,1.40007340,0.00000246
0.10000000,1.50016270,0.00000249
0.10000000,1.60029240,0.00000250
0.10000000,1.69986300,0.00000251
0.10000000,1.79994610,0.00000255
0.10000000,1.90001720,0.00000258
0.10000000,2.00010410,0.00000260
