Vgs,	Vds,	Ids
-1.00000000,-0.00015600,-0.00000003
-1.00000000,0.09995078,0.00000005
-1.00000000,0.20003154,0.00000006
-1.00000000,0.30011301,0.00000010
-1.00000000,0.40020107,0.00000009
-1.00000000,0.49976244,0.00000008
-1.00000000,0.59990647,0.00000011
-1.00000000,0.69999628,0.00000006
-1.00000000,0.80006850,0.00000012
-1.00000000,0.90014643,0.00000016
-1.00000000,1.00023270,0.00000008
-1.00000000,1.09987770,0.00000014
-1.00000000,1.19995760,0.00000013
-1.00000000,1.30003970,0.00000018
-1.00000000,1.40011620,0.00000013
-1.00000000,1.50020680,0.00000019
-1.00000000,1.60033390,0.00000015
-1.00000000,1.69990320,0.00000022
-1.00000000,1.79998890,0.00000020
-1.00000000,1.90006260,0.00000023
-1.00000000,2.00014430,0.00000016
-1.00000000,2.10021940,0.00000026
-1.00000000,2.20024510,0.00000011
-1.00000000,2.29981860,0.00000025
-1.00000000,2.39987680,0.00000022
-1.00000000,2.49996100,0.00000018
-1.00000000,2.60005310,0.00000018
-1.00000000,2.70019570,0.00000019
-1.00000000,2.80028260,0.00000025
-1.00000000,2.89983650,0.00000023
-1.00000000,2.99991570,0.00000024
-1.00000000,3.10000770,0.00000024
-1.00000000,3.20015290,0.00000021
-1.00000000,3.30022690,0.00000028
-1.00000000,3.39980020,0.00000019
-1.00000000,3.49988180,0.00000023
-1.00000000,3.59996760,0.00000018
-1.00000000,3.70004280,0.00000024
-1.00000000,3.80018540,0.00000033
-1.00000000,3.90027900,0.00000025
-1.00000000,3.99982630,0.00000033
-1.00000000,4.09990030,0.00000034
-1.00000000,4.19999120,0.00000025
-1.00000000,4.29994580,0.00000027
-1.00000000,4.40004540,0.00000031
-1.00000000,4.50011810,0.00000029
-1.00000000,4.59968740,0.00000023
-1.00000000,4.69977710,0.00000030
-1.00000000,4.79990690,0.00000032
-1.00000000,4.89999250,0.00000028
-1.00000000,5.00008590,0.00000035
-0.90000000,-0.00015497,0.00000010
-0.90000000,0.09995377,0.00000011
-0.90000000,0.20003037,0.00000000
-0.90000000,0.30011524,0.00000007
-0.90000000,0.40019963,0.00000010
-0.90000000,0.49976310,0.00000012
-0.90000000,0.59990594,0.00000012
-0.90000000,0.69999811,0.00000011
-0.90000000,0.80006746,0.00000015
-0.90000000,0.90014381,0.00000018
-0.90000000,1.00023250,0.00000016
-0.90000000,1.09987510,0.00000015
-0.90000000,1.19995920,0.00000021
-0.90000000,1.30004230,0.00000022
-0.90000000,1.40010970,0.00000023
-0.90000000,1.50019910,0.00000026
-0.90000000,1.60033130,0.00000023
-0.90000000,1.69990190,0.00000023
-0.90000000,1.79998630,0.00000025
-0.90000000,1.90005610,0.00000025
-0.90000000,2.00014050,0.00000026
-0.90000000,2.10021940,0.00000029
-0.90000000,2.20024120,0.00000030
-0.90000000,2.29981600,0.00000020
-0.90000000,2.39987680,0.00000030
-0.90000000,2.49996490,0.00000030
-0.90000000,2.60005060,0.00000031
-0.90000000,2.70019700,0.00000030
-0.90000000,2.80027880,0.00000028
-0.90000000,2.89983260,0.00000031
-0.90000000,2.99991960,0.00000025
-0.90000000,3.10000250,0.00000031
-0.90000000,3.20015160,0.00000029
-0.90000000,3.30022950,0.00000029
-0.90000000,3.39980020,0.00000035
-0.90000000,3.49988180,0.00000038
-0.90000000,3.59996880,0.00000032
-0.90000000,3.70004670,0.00000034
-0.90000000,3.80018410,0.00000041
-0.90000000,3.90028290,0.00000035
-0.90000000,3.99983020,0.00000036
-0.90000000,4.09990290,0.00000038
-0.90000000,4.19999250,0.00000036
-0.90000000,4.29994450,0.00000031
-0.90000000,4.40004670,0.00000029
-0.90000000,4.50012450,0.00000042
-0.90000000,4.59968740,0.00000044
-0.90000000,4.69977970,0.00000037
-0.90000000,4.79990950,0.00000038
-0.90000000,4.89999510,0.00000044
-0.90000000,5.00008330,0.00000042
-0.80000000,-0.00015415,0.00000001
-0.80000000,0.09995351,0.00000005
-0.80000000,0.20003455,0.00000008
-0.80000000,0.30011798,0.00000008
-0.80000000,0.40020068,0.00000015
-0.80000000,0.49976584,0.00000019
-0.80000000,0.59990647,0.00000019
-0.80000000,0.69999863,0.00000023
-0.80000000,0.80006850,0.00000013
-0.80000000,0.90014630,0.00000018
-0.80000000,1.00023180,0.00000018
-0.80000000,1.09987610,0.00000027
-0.80000000,1.19995930,0.00000025
-0.80000000,1.30003580,0.00000033
-0.80000000,1.40011100,0.00000031
-0.80000000,1.50019910,0.00000029
-0.80000000,1.60033000,0.00000030
-0.80000000,1.69989930,0.00000033
-0.80000000,1.79998500,0.00000027
-0.80000000,1.90006000,0.00000036
-0.80000000,2.00014430,0.00000030
-0.80000000,2.10022330,0.00000036
-0.80000000,2.20023860,0.00000034
-0.80000000,2.29981340,0.00000036
-0.80000000,2.39987290,0.00000038
-0.80000000,2.49995710,0.00000042
-0.80000000,2.60004930,0.00000035
-0.80000000,2.70018920,0.00000039
-0.80000000,2.80027750,0.00000036
-0.80000000,2.89983650,0.00000044
-0.80000000,2.99991570,0.00000039
-0.80000000,3.10000250,0.00000038
-0.80000000,3.20015160,0.00000041
-0.80000000,3.30022820,0.00000045
-0.80000000,3.39980020,0.00000049
-0.80000000,3.49988830,0.00000039
-0.80000000,3.59996630,0.00000045
-0.80000000,3.70004540,0.00000044
-0.80000000,3.80018410,0.00000041
-0.80000000,3.90027380,0.00000044
-0.80000000,3.99982500,0.00000046
-0.80000000,4.09990160,0.00000040
-0.80000000,4.19998600,0.00000048
-0.80000000,4.29994580,0.00000053
-0.80000000,4.40004410,0.00000046
-0.80000000,4.50012190,0.00000052
-0.80000000,4.59968740,0.00000048
-0.80000000,4.69977580,0.00000052
-0.80000000,4.79990950,0.00000049
-0.80000000,4.89999510,0.00000056
-0.80000000,5.00008070,0.00000054
-0.70000000,-0.00015302,0.00000001
-0.70000000,0.09995477,0.00000006
-0.70000000,0.20003076,0.00000011
-0.70000000,0.30011118,0.00000019
-0.70000000,0.40020238,0.00000023
-0.70000000,0.49976427,0.00000021
-0.70000000,0.59990346,0.00000021
-0.70000000,0.69999484,0.00000028
-0.70000000,0.80006419,0.00000028
-0.70000000,0.90014132,0.00000028
-0.70000000,1.00022690,0.00000033
-0.70000000,1.09987100,0.00000034
-0.70000000,1.19995850,0.00000035
-0.70000000,1.30004230,0.00000033
-0.70000000,1.40011360,0.00000036
-0.70000000,1.50020170,0.00000041
-0.70000000,1.60033130,0.00000034
-0.70000000,1.69989930,0.00000041
-0.70000000,1.79998500,0.00000039
-0.70000000,1.90005870,0.00000040
-0.70000000,2.00014430,0.00000042
-0.70000000,2.10021940,0.00000040
-0.70000000,2.20023860,0.00000052
-0.70000000,2.29981210,0.00000047
-0.70000000,2.39987160,0.00000047
-0.70000000,2.49996360,0.00000041
-0.70000000,2.60004800,0.00000047
-0.70000000,2.70018920,0.00000047
-0.70000000,2.80027360,0.00000052
-0.70000000,2.89983260,0.00000051
-0.70000000,2.99991830,0.00000050
-0.70000000,3.10000380,0.00000042
-0.70000000,3.20015030,0.00000055
-0.70000000,3.30022820,0.00000055
-0.70000000,3.39979890,0.00000053
-0.70000000,3.49988050,0.00000056
-0.70000000,3.59996110,0.00000057
-0.70000000,3.70004150,0.00000053
-0.70000000,3.80018410,0.00000058
-0.70000000,3.90027510,0.00000064
-0.70000000,3.99982370,0.00000054
-0.70000000,4.09990290,0.00000061
-0.70000000,4.19998210,0.00000060
-0.70000000,4.29994060,0.00000061
-0.70000000,4.40004670,0.00000062
-0.70000000,4.50012060,0.00000068
-0.70000000,4.59968220,0.00000064
-0.70000000,4.69977580,0.00000063
-0.70000000,4.79990560,0.00000066
-0.70000000,4.89999640,0.00000069
-0.70000000,5.00007810,0.00000065
-0.60000000,-0.00015478,0.00000000
-0.60000000,0.09995151,0.00000017
-0.60000000,0.20002906,0.00000018
-0.60000000,0.30011236,0.00000035
-0.60000000,0.40019780,0.00000036
-0.60000000,0.49976166,0.00000035
-0.60000000,0.59990673,0.00000043
-0.60000000,0.69999654,0.00000047
-0.60000000,0.80006340,0.00000043
-0.60000000,0.90014224,0.00000050
-0.60000000,1.00023000,0.00000051
-0.60000000,1.09987350,0.00000048
-0.60000000,1.19995680,0.00000057
-0.60000000,1.30003840,0.00000055
-0.60000000,1.40010850,0.00000052
-0.60000000,1.50020040,0.00000064
-0.60000000,1.60032870,0.00000060
-0.60000000,1.69989810,0.00000058
-0.60000000,1.79998500,0.00000062
-0.60000000,1.90005480,0.00000063
-0.60000000,2.00013920,0.00000069
-0.60000000,2.10021550,0.00000062
-0.60000000,2.20023600,0.00000068
-0.60000000,2.29981210,0.00000072
-0.60000000,2.39987160,0.00000070
-0.60000000,2.49996230,0.00000073
-0.60000000,2.60004670,0.00000071
-0.60000000,2.70019440,0.00000076
-0.60000000,2.80027620,0.00000075
-0.60000000,2.89983130,0.00000087
-0.60000000,2.99990920,0.00000078
-0.60000000,3.10000120,0.00000078
-0.60000000,3.20014900,0.00000082
-0.60000000,3.30022430,0.00000085
-0.60000000,3.39979890,0.00000084
-0.60000000,3.49987920,0.00000081
-0.60000000,3.59996500,0.00000083
-0.60000000,3.70004670,0.00000085
-0.60000000,3.80018410,0.00000088
-0.60000000,3.90027120,0.00000080
-0.60000000,3.99982630,0.00000088
-0.60000000,4.09990030,0.00000087
-0.60000000,4.19998210,0.00000096
-0.60000000,4.29993800,0.00000084
-0.60000000,4.40004020,0.00000096
-0.60000000,4.50012060,0.00000089
-0.60000000,4.59968090,0.00000087
-0.60000000,4.69977460,0.00000089
-0.60000000,4.79990300,0.00000095
-0.60000000,4.89999640,0.00000092
-0.60000000,5.00007940,0.00000101
-0.50000000,-0.00015230,-0.00000001
-0.50000000,0.09995092,0.00000079
-0.50000000,0.20002880,0.00000106
-0.50000000,0.30010595,0.00000115
-0.50000000,0.40019309,0.00000124
-0.50000000,0.49975525,0.00000141
-0.50000000,0.59989351,0.00000144
-0.50000000,0.69998751,0.00000157
-0.50000000,0.80005804,0.00000158
-0.50000000,0.90013753,0.00000172
-0.50000000,1.00021820,0.00000177
-0.50000000,1.09986280,0.00000186
-0.50000000,1.19995050,0.00000187
-0.50000000,1.30003060,0.00000195
-0.50000000,1.40010070,0.00000195
-0.50000000,1.50019000,0.00000201
-0.50000000,1.60032480,0.00000203
-0.50000000,1.69989030,0.00000209
-0.50000000,1.79997590,0.00000201
-0.50000000,1.90004320,0.00000216
-0.50000000,2.00013010,0.00000223
-0.50000000,2.10020900,0.00000223
-0.50000000,2.20023080,0.00000226
-0.50000000,2.29980700,0.00000229
-0.50000000,2.39985870,0.00000229
-0.50000000,2.49995070,0.00000232
-0.50000000,2.60003630,0.00000230
-0.50000000,2.70018020,0.00000240
-0.50000000,2.80026320,0.00000237
-0.50000000,2.89982350,0.00000243
-0.50000000,2.99990530,0.00000245
-0.50000000,3.09999340,0.00000248
-0.50000000,3.20014120,0.00000242
-0.50000000,3.30021660,0.00000253
-0.50000000,3.39978980,0.00000253
-0.50000000,3.49986760,0.00000248
-0.50000000,3.59995850,0.00000258
-0.50000000,3.70003240,0.00000255
-0.50000000,3.80016850,0.00000256
-0.50000000,3.90026600,0.00000256
-0.50000000,3.99981590,0.00000263
-0.50000000,4.09988730,0.00000267
-0.50000000,4.19997430,0.00000261
-0.50000000,4.29992510,0.00000265
-0.50000000,4.40002850,0.00000268
-0.50000000,4.50010770,0.00000264
-0.50000000,4.59966540,0.00000272
-0.50000000,4.69975900,0.00000271
-0.50000000,4.79989000,0.00000276
-0.50000000,4.89997820,0.00000273
-0.50000000,5.00006640,0.00000277
-0.40000000,-0.00015303,0.00000002
-0.40000000,0.09993353,0.00000304
-0.40000000,0.20000773,0.00000376
-0.40000000,0.30008841,0.00000414
-0.40000000,0.40017529,0.00000446
-0.40000000,0.49973418,0.00000479
-0.40000000,0.59987637,0.00000506
-0.40000000,0.69996553,0.00000528
-0.40000000,0.80003723,0.00000544
-0.40000000,0.90011280,0.00000568
-0.40000000,1.00019770,0.00000591
-0.40000000,1.09983910,0.00000604
-0.40000000,1.19992360,0.00000618
-0.40000000,1.30000470,0.00000629
-0.40000000,1.40007340,0.00000646
-0.40000000,1.50016400,0.00000653
-0.40000000,1.60029500,0.00000664
-0.40000000,1.69986040,0.00000680
-0.40000000,1.79994610,0.00000692
-0.40000000,1.90001720,0.00000702
-0.40000000,2.00010410,0.00000715
-0.40000000,2.10018050,0.00000717
-0.40000000,2.20019840,0.00000724
-0.40000000,2.29977710,0.00000739
-0.40000000,2.39983530,0.00000742
-0.40000000,2.49992600,0.00000745
-0.40000000,2.60001030,0.00000758
-0.40000000,2.70014640,0.00000766
-0.40000000,2.80023080,0.00000771
-0.40000000,2.89979500,0.00000780
-0.40000000,2.99987160,0.00000786
-0.40000000,3.09995970,0.00000789
-0.40000000,3.20010880,0.00000795
-0.40000000,3.30018150,0.00000805
-0.40000000,3.39975350,0.00000808
-0.40000000,3.49983640,0.00000814
-0.40000000,3.59992090,0.00000824
-0.40000000,3.69999220,0.00000821
-0.40000000,3.80013870,0.00000828
-0.40000000,3.90023100,0.00000837
-0.40000000,3.99977960,0.00000841
-0.40000000,4.09985750,0.00000845
-0.40000000,4.19993930,0.00000854
-0.40000000,4.29989650,0.00000855
-0.40000000,4.39999480,0.00000860
-0.40000000,4.50007400,0.00000858
-0.40000000,4.59963690,0.00000868
-0.40000000,4.69973310,0.00000872
-0.40000000,4.79985240,0.00000877
-0.40000000,4.89994970,0.00000881
-0.40000000,5.00002620,0.00000880
-0.30000000,-0.00015229,0.00000005
-0.30000000,0.09991638,0.00000679
-0.30000000,0.19997632,0.00000905
-0.30000000,0.30005151,0.00000984
-0.30000000,0.40013944,0.00001049
-0.30000000,0.49970029,0.00001106
-0.30000000,0.59983607,0.00001148
-0.30000000,0.69992509,0.00001185
-0.30000000,0.79999745,0.00001222
-0.30000000,0.90007040,0.00001256
-0.30000000,1.00015830,0.00001290
-0.30000000,1.09979730,0.00001313
-0.30000000,1.19988040,0.00001337
-0.30000000,1.29996190,0.00001362
-0.30000000,1.40003190,0.00001387
-0.30000000,1.50012000,0.00001410
-0.30000000,1.60024830,0.00001426
-0.30000000,1.69981640,0.00001451
-0.30000000,1.79990330,0.00001460
-0.30000000,1.89996660,0.00001485
-0.30000000,2.00005880,0.00001499
-0.30000000,2.10013510,0.00001520
-0.30000000,2.20014780,0.00001534
-0.30000000,2.29972650,0.00001545
-0.30000000,2.39978600,0.00001555
-0.30000000,2.49987540,0.00001568
-0.30000000,2.59995720,0.00001585
-0.30000000,2.70010110,0.00001591
-0.30000000,2.80018540,0.00001608
-0.30000000,2.89974310,0.00001620
-0.30000000,2.99982360,0.00001633
-0.30000000,3.09990780,0.00001643
-0.30000000,3.20005950,0.00001652
-0.30000000,3.30013360,0.00001670
-0.30000000,3.39970420,0.00001671
-0.30000000,3.49978720,0.00001683
-0.30000000,3.59986900,0.00001692
-0.30000000,3.69994940,0.00001699
-0.30000000,3.80008810,0.00001712
-0.30000000,3.90017780,0.00001724
-0.30000000,3.99972650,0.00001724
-0.30000000,4.09980040,0.00001733
-0.30000000,4.19988740,0.00001745
-0.30000000,4.29984210,0.00001758
-0.30000000,4.39994550,0.00001765
-0.30000000,4.50001560,0.00001768
-0.30000000,4.59958240,0.00001781
-0.30000000,4.69967210,0.00001795
-0.30000000,4.79980180,0.00001801
-0.30000000,4.89989390,0.00001817
-0.30000000,4.99997820,0.00001822
-0.20000000,-0.00015221,-0.00000002
-0.20000000,0.09988927,0.00001103
-0.20000000,0.19993419,0.00001643
-0.20000000,0.30000754,0.00001827
-0.20000000,0.40008552,0.00001927
-0.20000000,0.49964834,0.00002006
-0.20000000,0.59978569,0.00002070
-0.20000000,0.69987314,0.00002133
-0.20000000,0.79994040,0.00002191
-0.20000000,0.90001910,0.00002222
-0.20000000,1.00009910,0.00002275
-0.20000000,1.09973840,0.00002315
-0.20000000,1.19982390,0.00002351
-0.20000000,1.29989960,0.00002384
-0.20000000,1.39996840,0.00002420
-0.20000000,1.50006160,0.00002439
-0.20000000,1.60018340,0.00002478
-0.20000000,1.69975540,0.00002501
-0.20000000,1.79983840,0.00002530
-0.20000000,1.89990700,0.00002545
-0.20000000,1.99999260,0.00002578
-0.20000000,2.10006900,0.00002596
-0.20000000,2.20008810,0.00002614
-0.20000000,2.29966300,0.00002635
-0.20000000,2.39971990,0.00002655
-0.20000000,2.49980930,0.00002676
-0.20000000,2.59989100,0.00002695
-0.20000000,2.70003880,0.00002709
-0.20000000,2.80011660,0.00002728
-0.20000000,2.89967440,0.00002744
-0.20000000,2.99975490,0.00002761
-0.20000000,3.09984300,0.00002772
-0.20000000,3.19998820,0.00002789
-0.20000000,3.30007260,0.00002799
-0.20000000,3.39963810,0.00002819
-0.20000000,3.49971970,0.00002830
-0.20000000,3.59980540,0.00002842
-0.20000000,3.69988070,0.00002856
-0.20000000,3.80001420,0.00002875
-0.20000000,3.90011430,0.00002888
-0.20000000,3.99965770,0.00002900
-0.20000000,4.09973300,0.00002921
-0.20000000,4.19982260,0.00002927
-0.20000000,4.29977850,0.00002939
-0.20000000,4.39987810,0.00002948
-0.20000000,4.49995340,0.00002971
-0.20000000,4.59951110,0.00002979
-0.20000000,4.69960210,0.00002994
-0.20000000,4.79973050,0.00003013
-0.20000000,4.89982260,0.00003018
-0.20000000,4.99990560,0.00003040
-0.10000000,-0.00015360,-0.00000004
-0.10000000,0.09986408,0.00001518
-0.10000000,0.19988839,0.00002464
-0.10000000,0.29994159,0.00002905
-0.10000000,0.40001997,0.00003086
-0.10000000,0.49957820,0.00003194
-0.10000000,0.59971293,0.00003290
-0.10000000,0.69980156,0.00003368
-0.10000000,0.79986869,0.00003437
-0.10000000,0.89994360,0.00003501
-0.10000000,1.00002400,0.00003556
-0.10000000,1.09966330,0.00003611
-0.10000000,1.19974480,0.00003651
-0.10000000,1.29982570,0.00003699
-0.10000000,1.39989450,0.00003740
-0.10000000,1.49999030,0.00003775
-0.10000000,1.60011080,0.00003817
-0.10000000,1.69967630,0.00003853
-0.10000000,1.79976320,0.00003879
-0.10000000,1.89983310,0.00003910
-0.10000000,1.99991350,0.00003945
-0.10000000,2.09998860,0.00003973
-0.10000000,2.20000640,0.00004004
-0.10000000,2.29958390,0.00004027
-0.10000000,2.39964210,0.00004048
-0.10000000,2.49972890,0.00004071
-0.10000000,2.59981450,0.00004100
-0.10000000,2.69995710,0.00004121
-0.10000000,2.80004270,0.00004142
-0.10000000,2.89959270,0.00004166
-0.10000000,2.99967190,0.00004188
-0.10000000,3.09976000,0.00004208
-0.10000000,3.19990780,0.00004225
-0.10000000,3.29998570,0.00004245
-0.10000000,3.39955900,0.00004261
-0.10000000,3.49963670,0.00004279
-0.10000000,3.59972500,0.00004297
-0.10000000,3.69979120,0.00004322
-0.10000000,3.79993250,0.00004334
-0.10000000,3.90002480,0.00004353
-0.10000000,3.99957210,0.00004371
-0.10000000,4.09964870,0.00004386
-0.10000000,4.19973310,0.00004407
-0.10000000,4.29969030,0.00004424
-0.10000000,4.39978990,0.00004439
-0.10000000,4.49986910,0.00004462
-0.10000000,4.59942940,0.00004479
-0.10000000,4.69951780,0.00004499
-0.10000000,4.79964490,0.00004513
-0.10000000,4.89973050,0.00004534
-0.10000000,4.99981350,0.00004556
0.00000000,-0.00015348,0.00000002
0.00000000,0.09984007,0.00001919
0.00000000,0.19984062,0.00003296
0.00000000,0.29987315,0.00004120
0.00000000,0.39993792,0.00004499
0.00000000,0.49948987,0.00004673
0.00000000,0.59962630,0.00004789
0.00000000,0.69970892,0.00004895
0.00000000,0.79977722,0.00004985
0.00000000,0.89985357,0.00005058
0.00000000,0.99992960,0.00005130
0.00000000,1.09957190,0.00005198
0.00000000,1.19965110,0.00005259
0.00000000,1.29973100,0.00005310
0.00000000,1.39980110,0.00005372
0.00000000,1.49988780,0.00005418
0.00000000,1.60001350,0.00005457
0.00000000,1.69957770,0.00005503
0.00000000,1.79966340,0.00005547
0.00000000,1.89973060,0.00005589
0.00000000,1.99981880,0.00005618
0.00000000,2.09989000,0.00005652
0.00000000,2.19990920,0.00005687
0.00000000,2.29948530,0.00005727
0.00000000,2.39954090,0.00005755
0.00000000,2.49962900,0.00005781
0.00000000,2.59971470,0.00005812
0.00000000,2.69985730,0.00005840
0.00000000,2.79994030,0.00005866
0.00000000,2.89949670,0.00005894
0.00000000,2.99957070,0.00005925
0.00000000,3.09965890,0.00005948
0.00000000,3.19980400,0.00005971
0.00000000,3.29988200,0.00005992
0.00000000,3.39945260,0.00006015
0.00000000,3.49953040,0.00006048
0.00000000,3.59961870,0.00006066
0.00000000,3.69969270,0.00006086
0.00000000,3.79983000,0.00006108
0.00000000,3.89992240,0.00006133
0.00000000,3.99947100,0.00006146
0.00000000,4.09954100,0.00006172
0.00000000,4.19962680,0.00006195
0.00000000,4.29957880,0.00006221
0.00000000,4.39968360,0.00006241
0.00000000,4.49976140,0.00006265
0.00000000,4.59932560,0.00006286
0.00000000,4.69940750,0.00006306
0.00000000,4.79953470,0.00006334
0.00000000,4.89962550,0.00006365
0.00000000,4.99971110,0.00006388
0.10000000,-0.00015180,-0.00000000
0.10000000,0.09982091,0.00002340
0.10000000,0.19979208,0.00004117
0.10000000,0.29980484,0.00005355
0.10000000,0.39984828,0.00006068
0.10000000,0.49939251,0.00006402
0.10000000,0.59951926,0.00006590
0.10000000,0.69960410,0.00006726
0.10000000,0.79966978,0.00006834
0.10000000,0.89974496,0.00006927
0.10000000,0.99982177,0.00007015
0.10000000,1.09946170,0.00007097
0.10000000,1.19954250,0.00007171
0.10000000,1.29962340,0.00007244
0.10000000,1.39968310,0.00007299
0.10000000,1.49977630,0.00007364
0.10000000,1.59989810,0.00007420
0.10000000,1.69946750,0.00007472
0.10000000,1.79954920,0.00007518
0.10000000,1.89961910,0.00007567
0.10000000,1.99970340,0.00007610
0.10000000,2.09977330,0.00007655
0.10000000,2.19979380,0.00007699
0.10000000,2.29936990,0.00007744
0.10000000,2.39942550,0.00007768
0.10000000,2.49950710,0.00007814
0.10000000,2.59959800,0.00007842
0.10000000,2.69973400,0.00007879
