Vgs,	Vds,	Ids
-5.00000000,-4.98650260,-0.00228328
-5.00000000,-4.88644220,-0.00228045
-5.00000000,-4.78636760,-0.00227768
-5.00000000,-4.68677920,-0.00227481
-5.00000000,-4.58671220,-0.00227179
-5.00000000,-4.48665170,-0.00226859
-5.00000000,-4.38659780,-0.00226523
-5.00000000,-4.28651280,-0.00226172
-5.00000000,-4.18658700,-0.00225786
-5.00000000,-4.08705280,-0.00225391
-5.00000000,-3.98699630,-0.00224956
-5.00000000,-3.88696690,-0.00224480
-5.00000000,-3.78690510,-0.00223958
-5.00000000,-3.68680440,-0.00223382
-5.00000000,-3.58676860,-0.00222737
-5.00000000,-3.48724490,-0.00222005
-5.00000000,-3.38722330,-0.00221186
-5.00000000,-3.28718480,-0.00220225
-5.00000000,-3.18717470,-0.00219142
-5.00000000,-3.08710260,-0.00217869
-5.00000000,-2.98710440,-0.00216413
-5.00000000,-2.88764540,-0.00214719
-5.00000000,-2.78768350,-0.00212773
-5.00000000,-2.68773160,-0.00210544
-5.00000000,-2.58773340,-0.00208002
-5.00000000,-2.48782440,-0.00205128
-5.00000000,-2.38792470,-0.00201902
-5.00000000,-2.28858260,-0.00198323
-5.00000000,-2.18873710,-0.00194350
-5.00000000,-2.08897610,-0.00189988
-5.00000000,-1.98918130,-0.00185212
-5.00000000,-1.88940050,-0.00180038
-5.00000000,-1.78966030,-0.00174446
-5.00000000,-1.69044760,-0.00168454
-5.00000000,-1.59073990,-0.00162013
-5.00000000,-1.49101620,-0.00155138
-5.00000000,-1.39135370,-0.00147840
-5.00000000,-1.29173650,-0.00140105
-5.00000000,-1.19213480,-0.00131935
-5.00000000,-1.09307280,-0.00123388
-5.00000000,-0.99344563,-0.00114344
-5.00000000,-0.89391901,-0.00104876
-5.00000000,-0.79441918,-0.00094968
-5.00000000,-0.69495607,-0.00084619
-5.00000000,-0.59549960,-0.00073842
-5.00000000,-0.49653591,-0.00062687
-5.00000000,-0.39713457,-0.00051028
-5.00000000,-0.29776298,-0.00038930
-5.00000000,-0.19841563,-0.00026396
-5.00000000,-0.09910209,-0.00013409
-5.00000000,-0.00015789,-0.00000018
-4.90000000,-4.98702650,-0.00219461
-4.90000000,-4.88696090,-0.00219147
-4.90000000,-4.78688760,-0.00218880
-4.90000000,-4.68729800,-0.00218604
-4.90000000,-4.58722830,-0.00218313
-4.90000000,-4.48716520,-0.00218011
-4.90000000,-4.38711520,-0.00217697
-4.90000000,-4.28703410,-0.00217364
-4.90000000,-4.18710050,-0.00217014
-4.90000000,-4.08755860,-0.00216646
-4.90000000,-3.98750470,-0.00216254
-4.90000000,-3.88747400,-0.00215813
-4.90000000,-3.78741210,-0.00215346
-4.90000000,-3.68730110,-0.00214823
-4.90000000,-3.58726270,-0.00214241
-4.90000000,-3.48773640,-0.00213600
-4.90000000,-3.38770700,-0.00212864
-4.90000000,-3.28766470,-0.00212029
-4.90000000,-3.18764030,-0.00211061
-4.90000000,-3.08756040,-0.00209954
-4.90000000,-2.98755310,-0.00208656
-4.90000000,-2.88809150,-0.00207163
-4.90000000,-2.78811400,-0.00205425
-4.90000000,-2.68814530,-0.00203412
-4.90000000,-2.58813800,-0.00201110
-4.90000000,-2.48821210,-0.00198487
-4.90000000,-2.38830080,-0.00195521
-4.90000000,-2.28894050,-0.00192214
-4.90000000,-2.18908340,-0.00188513
-4.90000000,-2.08930160,-0.00184432
-4.90000000,-1.98949130,-0.00179950
-4.90000000,-1.88969620,-0.00175046
-4.90000000,-1.78993390,-0.00169732
-4.90000000,-1.69070960,-0.00164026
-4.90000000,-1.59098110,-0.00157875
-4.90000000,-1.49124310,-0.00151268
-4.90000000,-1.39156380,-0.00144252
-4.90000000,-1.29193230,-0.00136796
-4.90000000,-1.19231500,-0.00128907
-4.90000000,-1.09322840,-0.00120624
-4.90000000,-0.99358971,-0.00111850
-4.90000000,-0.89404712,-0.00102644
-4.90000000,-0.79453512,-0.00092998
-4.90000000,-0.69505787,-0.00082910
-4.90000000,-0.59558374,-0.00072387
-4.90000000,-0.49660343,-0.00061473
-4.90000000,-0.39718887,-0.00050073
-4.90000000,-0.29780276,-0.00038225
-4.90000000,-0.19844062,-0.00025924
-4.90000000,-0.09911001,-0.00013174
-4.90000000,-0.00015665,-0.00000030
-4.80000000,-4.98754140,-0.00210577
-4.80000000,-4.88748230,-0.00210286
-4.80000000,-4.78740760,-0.00210030
-4.80000000,-4.68781930,-0.00209770
-4.80000000,-4.58774580,-0.00209497
-4.80000000,-4.48768400,-0.00209216
-4.80000000,-4.38762880,-0.00208918
-4.80000000,-4.28754640,-0.00208617
-4.80000000,-4.18760890,-0.00208289
-4.80000000,-4.08806300,-0.00207949
-4.80000000,-3.98802080,-0.00207581
-4.80000000,-3.88797720,-0.00207185
-4.80000000,-3.78790620,-0.00206759
-4.80000000,-3.68779780,-0.00206301
-4.80000000,-3.58775810,-0.00205782
-4.80000000,-3.48822660,-0.00205213
-4.80000000,-3.38819070,-0.00204559
-4.80000000,-3.28814450,-0.00203819
-4.80000000,-3.18811370,-0.00202974
-4.80000000,-3.08803240,-0.00201994
-4.80000000,-2.98801600,-0.00200855
-4.80000000,-2.88853500,-0.00199542
-4.80000000,-2.78854460,-0.00198003
-4.80000000,-2.68856420,-0.00196210
-4.80000000,-2.58855040,-0.00194137
-4.80000000,-2.48860380,-0.00191768
-4.80000000,-2.38867690,-0.00189058
-4.80000000,-2.28930100,-0.00186020
-4.80000000,-2.18942450,-0.00182597
-4.80000000,-2.08963750,-0.00178792
-4.80000000,-1.98980250,-0.00174588
-4.80000000,-1.88998800,-0.00169976
-4.80000000,-1.79021400,-0.00164952
-4.80000000,-1.69097030,-0.00159530
-4.80000000,-1.59122490,-0.00153652
-4.80000000,-1.49146360,-0.00147351
-4.80000000,-1.39177390,-0.00140613
-4.80000000,-1.29213200,-0.00133432
-4.80000000,-1.19249010,-0.00125818
-4.80000000,-1.09339050,-0.00117806
-4.80000000,-0.99373902,-0.00109313
-4.80000000,-0.89417903,-0.00100372
-4.80000000,-0.79465446,-0.00090999
-4.80000000,-0.69515824,-0.00081178
-4.80000000,-0.59567102,-0.00070906
-4.80000000,-0.49667514,-0.00060251
-4.80000000,-0.39724946,-0.00049098
-4.80000000,-0.29784306,-0.00037493
-4.80000000,-0.19847059,-0.00025442
-4.80000000,-0.09912794,-0.00012935
-4.80000000,-0.00016084,-0.00000016
-4.70000000,-4.98805880,-0.00201815
-4.70000000,-4.88799190,-0.00201531
-4.70000000,-4.78791860,-0.00201290
-4.70000000,-4.68832510,-0.00201039
-4.70000000,-4.58825410,-0.00200787
-4.70000000,-4.48819360,-0.00200522
-4.70000000,-4.38813070,-0.00200248
-4.70000000,-4.28804950,-0.00199959
-4.70000000,-4.18811080,-0.00199657
-4.70000000,-4.08857010,-0.00199345
-4.70000000,-3.98851490,-0.00199000
-4.70000000,-3.88847780,-0.00198650
-4.70000000,-3.78840940,-0.00198254
-4.70000000,-3.68829190,-0.00197840
-4.70000000,-3.58825090,-0.00197372
-4.70000000,-3.48871290,-0.00196860
-4.70000000,-3.38867320,-0.00196291
-4.70000000,-3.28861660,-0.00195642
-4.70000000,-3.18858570,-0.00194898
-4.70000000,-3.08848630,-0.00194037
-4.70000000,-2.98846860,-0.00193052
-4.70000000,-2.88898250,-0.00191893
-4.70000000,-2.78898290,-0.00190533
-4.70000000,-2.68899480,-0.00188953
-4.70000000,-2.58895760,-0.00187106
-4.70000000,-2.48899930,-0.00184975
-4.70000000,-2.38905810,-0.00182523
-4.70000000,-2.28966670,-0.00179748
-4.70000000,-2.18977850,-0.00176594
-4.70000000,-2.08996820,-0.00173075
-4.70000000,-1.99012020,-0.00169155
-4.70000000,-1.89028890,-0.00164829
-4.70000000,-1.79049930,-0.00160093
-4.70000000,-1.69123870,-0.00154966
-4.70000000,-1.59147650,-0.00149386
-4.70000000,-1.49170480,-0.00143358
-4.70000000,-1.39198790,-0.00136906
-4.70000000,-1.29232780,-0.00130020
-4.70000000,-1.19267950,-0.00122684
-4.70000000,-1.09356300,-0.00114948
-4.70000000,-0.99389369,-0.00106725
-4.70000000,-0.89431276,-0.00098072
-4.70000000,-0.79476804,-0.00088955
-4.70000000,-0.69526345,-0.00079408
-4.70000000,-0.59575896,-0.00069404
-4.70000000,-0.49674619,-0.00059010
-4.70000000,-0.39730481,-0.00048109
-4.70000000,-0.29788428,-0.00036757
-4.70000000,-0.19849728,-0.00024957
-4.70000000,-0.09913914,-0.00012700
-4.70000000,-0.00015704,-0.00000017
-4.60000000,-4.98856070,-0.00193144
-4.60000000,-4.88849770,-0.00192884
-4.60000000,-4.78842180,-0.00192652
-4.60000000,-4.68882820,-0.00192421
-4.60000000,-4.58876120,-0.00192181
-4.60000000,-4.48869160,-0.00191925
-4.60000000,-4.38863770,-0.00191670
-4.60000000,-4.28855010,-0.00191400
-4.60000000,-4.18861780,-0.00191122
-4.60000000,-4.08906680,-0.00190826
-4.60000000,-3.98901420,-0.00190517
-4.60000000,-3.88896280,-0.00190187
-4.60000000,-3.78889830,-0.00189836
-4.60000000,-3.68878730,-0.00189449
-4.60000000,-3.58873600,-0.00189038
-4.60000000,-3.48919530,-0.00188583
-4.60000000,-3.38915040,-0.00188069
-4.60000000,-3.28909640,-0.00187501
-4.60000000,-3.18905520,-0.00186856
-4.60000000,-3.08895320,-0.00186097
-4.60000000,-2.98892770,-0.00185237
-4.60000000,-2.88942860,-0.00184229
-4.60000000,-2.78942000,-0.00183042
-4.60000000,-2.68941750,-0.00181654
-4.60000000,-2.58937390,-0.00180016
-4.60000000,-2.48940130,-0.00178121
-4.60000000,-2.38944590,-0.00175927
-4.60000000,-2.29003890,-0.00173411
-4.60000000,-2.19012870,-0.00170529
-4.60000000,-2.09030280,-0.00167283
-4.60000000,-1.99044050,-0.00163647
-4.60000000,-1.89059360,-0.00159611
-4.60000000,-1.79078590,-0.00155169
-4.60000000,-1.69151110,-0.00150339
-4.60000000,-1.59172810,-0.00145033
-4.60000000,-1.49193960,-0.00139312
-4.60000000,-1.39221490,-0.00133150
-4.60000000,-1.29253270,-0.00126546
-4.60000000,-1.19286360,-0.00119499
-4.60000000,-1.09373420,-0.00112051
-4.60000000,-0.99404116,-0.00104113
-4.60000000,-0.89444912,-0.00095734
-4.60000000,-0.79489210,-0.00086897
-4.60000000,-0.69536984,-0.00077620
-4.60000000,-0.59584532,-0.00067880
-4.60000000,-0.49681882,-0.00057742
-4.60000000,-0.39736331,-0.00047110
-4.60000000,-0.29792603,-0.00036018
-4.60000000,-0.19852123,-0.00024468
-4.60000000,-0.09915246,-0.00012441
-4.60000000,-0.00015948,-0.00000018
-4.50000000,-4.98905740,-0.00184587
-4.50000000,-4.88899700,-0.00184347
-4.50000000,-4.78892620,-0.00184127
-4.50000000,-4.68932490,-0.00183910
-4.50000000,-4.58925530,-0.00183682
-4.50000000,-4.48918960,-0.00183449
-4.50000000,-4.38913180,-0.00183207
-4.50000000,-4.28904160,-0.00182961
-4.50000000,-4.18911060,-0.00182695
-4.50000000,-4.08956090,-0.00182425
-4.50000000,-3.98950570,-0.00182136
-4.50000000,-3.88946340,-0.00181832
-4.50000000,-3.78938850,-0.00181509
-4.50000000,-3.68926710,-0.00181161
-4.50000000,-3.58921970,-0.00180794
-4.50000000,-3.48967640,-0.00180375
-4.50000000,-3.38963150,-0.00179932
-4.50000000,-3.28957100,-0.00179426
-4.50000000,-3.18952720,-0.00178854
-4.50000000,-3.08942130,-0.00178201
-4.50000000,-2.98937640,-0.00177446
-4.50000000,-2.88987730,-0.00176574
-4.50000000,-2.78985960,-0.00175545
-4.50000000,-2.68984810,-0.00174330
-4.50000000,-2.58979280,-0.00172901
-4.50000000,-2.48980590,-0.00171223
-4.50000000,-2.38983490,-0.00169259
-4.50000000,-2.29041240,-0.00167005
-4.50000000,-2.19049570,-0.00164395
-4.50000000,-2.09065030,-0.00161424
-4.50000000,-1.99077250,-0.00158078
-4.50000000,-1.89090620,-0.00154327
-4.50000000,-1.79108030,-0.00150181
-4.50000000,-1.69178470,-0.00145638
-4.50000000,-1.59198750,-0.00140639
-4.50000000,-1.49217950,-0.00135209
-4.50000000,-1.39243790,-0.00129340
-4.50000000,-1.29273250,-0.00123032
-4.50000000,-1.19305550,-0.00116271
-4.50000000,-1.09390150,-0.00109110
-4.50000000,-0.99419636,-0.00101457
-4.50000000,-0.89458769,-0.00093355
-4.50000000,-0.79501641,-0.00084804
-4.50000000,-0.69547256,-0.00075795
-4.50000000,-0.59594281,-0.00066336
-4.50000000,-0.49689930,-0.00056460
-4.50000000,-0.39742376,-0.00046098
-4.50000000,-0.29797143,-0.00035256
-4.50000000,-0.19855289,-0.00023965
-4.50000000,-0.09916585,-0.00012203
-4.50000000,-0.00016031,-0.00000017
-4.40000000,-4.98955800,-0.00176162
-4.40000000,-4.88948850,-0.00175932
-4.40000000,-4.78941640,-0.00175729
-4.40000000,-4.68981770,-0.00175523
-4.40000000,-4.58974680,-0.00175313
-4.40000000,-4.48968630,-0.00175094
-4.40000000,-4.38962200,-0.00174860
-4.40000000,-4.28953700,-0.00174624
-4.40000000,-4.18959690,-0.00174380
-4.40000000,-4.09004850,-0.00174128
-4.40000000,-3.98998550,-0.00173860
-4.40000000,-3.88994060,-0.00173581
-4.40000000,-3.78987100,-0.00173293
-4.40000000,-3.68975080,-0.00172966
-4.40000000,-3.58969950,-0.00172630
-4.40000000,-3.49015500,-0.00172266
-4.40000000,-3.39010360,-0.00171861
-4.40000000,-3.29003790,-0.00171417
-4.40000000,-3.18999150,-0.00170910
-4.40000000,-3.08988430,-0.00170349
-4.40000000,-2.98983290,-0.00169686
-4.40000000,-2.89032730,-0.00168937
-4.40000000,-2.79029790,-0.00168039
-4.40000000,-2.69027600,-0.00166993
-4.40000000,-2.59021040,-0.00165748
-4.40000000,-2.49021310,-0.00164282
-4.40000000,-2.39023050,-0.00162543
-4.40000000,-2.29078980,-0.00160539
-4.40000000,-2.19085620,-0.00158185
-4.40000000,-2.09099390,-0.00155501
-4.40000000,-1.99110450,-0.00152433
-4.40000000,-1.89122130,-0.00148975
-4.40000000,-1.79137600,-0.00145116
-4.40000000,-1.69206870,-0.00140872
-4.40000000,-1.59225460,-0.00136171
-4.40000000,-1.49242460,-0.00131046
-4.40000000,-1.39266750,-0.00125473
-4.40000000,-1.29295030,-0.00119465
-4.40000000,-1.19324490,-0.00112998
-4.40000000,-1.09407910,-0.00106126
-4.40000000,-0.99435483,-0.00098760
-4.40000000,-0.89472941,-0.00090945
-4.40000000,-0.79513968,-0.00082675
-4.40000000,-0.69558130,-0.00073952
-4.40000000,-0.59603192,-0.00064763
-4.40000000,-0.49697650,-0.00055164
-4.40000000,-0.39748566,-0.00045061
-4.40000000,-0.29801959,-0.00034488
-4.40000000,-0.19858471,-0.00023463
-4.40000000,-0.09918280,-0.00011957
-4.40000000,-0.00015856,-0.00000018
-4.30000000,-4.99004170,-0.00167866
-4.30000000,-4.88997610,-0.00167649
-4.30000000,-4.78990020,-0.00167461
-4.30000000,-4.69030150,-0.00167258
-4.30000000,-4.59022920,-0.00167058
-4.30000000,-4.49016100,-0.00166854
-4.30000000,-4.39010320,-0.00166639
-4.30000000,-4.29001300,-0.00166420
-4.30000000,-4.19007160,-0.00166191
-4.30000000,-4.09052060,-0.00165965
-4.30000000,-3.99045760,-0.00165706
-4.30000000,-3.89041910,-0.00165452
-4.30000000,-3.79034170,-0.00165177
-4.30000000,-3.69022550,-0.00164890
-4.30000000,-3.59016770,-0.00164582
-4.30000000,-3.49062180,-0.00164251
-4.30000000,-3.39057170,-0.00163897
-4.30000000,-3.29050090,-0.00163491
-4.30000000,-3.19045190,-0.00163048
-4.30000000,-3.09033560,-0.00162553
-4.30000000,-2.99028810,-0.00161980
-4.30000000,-2.89076690,-0.00161332
-4.30000000,-2.79073630,-0.00160563
-4.30000000,-2.69070790,-0.00159655
-4.30000000,-2.59062670,-0.00158581
-4.30000000,-2.49061780,-0.00157313
-4.30000000,-2.39062730,-0.00155804
-4.30000000,-2.29117360,-0.00154020
-4.30000000,-2.19122060,-0.00151937
-4.30000000,-2.09134930,-0.00149510
-4.30000000,-1.99143260,-0.00146722
-4.30000000,-1.89153900,-0.00143559
-4.30000000,-1.79167820,-0.00140001
-4.30000000,-1.69234360,-0.00136044
-4.30000000,-1.59251270,-0.00131652
-4.30000000,-1.49266970,-0.00126815
-4.30000000,-1.39289050,-0.00121543
-4.30000000,-1.29315390,-0.00115838
-4.30000000,-1.19343550,-0.00109677
-4.30000000,-1.09425810,-0.00103094
-4.30000000,-0.99451670,-0.00096026
-4.30000000,-0.89487218,-0.00088498
-4.30000000,-0.79526465,-0.00080515
-4.30000000,-0.69569358,-0.00072067
-4.30000000,-0.59612300,-0.00063165
-4.30000000,-0.49704952,-0.00053841
-4.30000000,-0.39754363,-0.00044013
-4.30000000,-0.29806225,-0.00033712
-4.30000000,-0.19861311,-0.00022942
-4.30000000,-0.09919392,-0.00011697
-4.30000000,-0.00016008,-0.00000018
-4.20000000,-4.99052280,-0.00159701
-4.20000000,-4.89045210,-0.00159487
-4.20000000,-4.79037350,-0.00159309
-4.20000000,-4.69077740,-0.00159129
-4.20000000,-4.59070390,-0.00158941
-4.20000000,-4.49063560,-0.00158746
-4.20000000,-4.39057260,-0.00158543
-4.20000000,-4.29048630,-0.00158335
-4.20000000,-4.19054490,-0.00158128
-4.20000000,-4.09099390,-0.00157911
-4.20000000,-3.99093350,-0.00157676
-4.20000000,-3.89088340,-0.00157436
-4.20000000,-3.79080860,-0.00157183
-4.20000000,-3.69068580,-0.00156922
-4.20000000,-3.59063060,-0.00156634
-4.20000000,-3.49108090,-0.00156340
-4.20000000,-3.39102820,-0.00156016
-4.20000000,-3.29095870,-0.00155660
-4.20000000,-3.19090970,-0.00155271
-4.20000000,-3.09078430,-0.00154842
-4.20000000,-2.99073160,-0.00154345
-4.20000000,-2.89121170,-0.00153781
-4.20000000,-2.79116940,-0.00153118
-4.20000000,-2.69113200,-0.00152340
-4.20000000,-2.59104680,-0.00151421
-4.20000000,-2.49103020,-0.00150323
-4.20000000,-2.39101770,-0.00149008
-4.20000000,-2.29155750,-0.00147466
-4.20000000,-2.19159280,-0.00145619
-4.20000000,-2.09169680,-0.00143464
-4.20000000,-1.99176980,-0.00140957
-4.20000000,-1.89185420,-0.00138076
-4.20000000,-1.79197770,-0.00134807
-4.20000000,-1.69263280,-0.00131147
-4.20000000,-1.59278240,-0.00127056
-4.20000000,-1.49291870,-0.00122532
-4.20000000,-1.39312000,-0.00117566
-4.20000000,-1.29337050,-0.00112163
-4.20000000,-1.19363520,-0.00106300
-4.20000000,-1.09443710,-0.00100018
-4.20000000,-0.99467844,-0.00093239
-4.20000000,-0.89502201,-0.00086009
-4.20000000,-0.79539171,-0.00078319
-4.20000000,-0.69580049,-0.00070168
-4.20000000,-0.59621538,-0.00061545
-4.20000000,-0.49712515,-0.00052495
-4.20000000,-0.39760317,-0.00042946
-4.20000000,-0.29810556,-0.00032922
-4.20000000,-0.19864203,-0.00022420
-4.20000000,-0.09921204,-0.00011438
-4.20000000,-0.00015794,-0.00000019
-4.10000000,-4.99098970,-0.00151674
-4.10000000,-4.89091890,-0.00151478
-4.10000000,-4.79084170,-0.00151308
-4.10000000,-4.69124820,-0.00151138
-4.10000000,-4.59117070,-0.00150959
-4.10000000,-4.49109860,-0.00150776
-4.10000000,-4.39103820,-0.00150589
-4.10000000,-4.29094800,-0.00150396
-4.10000000,-4.19100530,-0.00150193
-4.10000000,-4.09145820,-0.00149992
-4.10000000,-3.99139390,-0.00149784
-4.10000000,-3.89134120,-0.00149557
-4.10000000,-3.79127020,-0.00149318
-4.10000000,-3.69114490,-0.00149078
-4.10000000,-3.59108580,-0.00148819
-4.10000000,-3.49153740,-0.00148549
-4.10000000,-3.39148080,-0.00148254
-4.10000000,-3.29141000,-0.00147940
-4.10000000,-3.19135710,-0.00147596
-4.10000000,-3.09123560,-0.00147210
-4.10000000,-2.99118160,-0.00146783
-4.10000000,-2.89165140,-0.00146290
-4.10000000,-2.79159870,-0.00145725
-4.10000000,-2.69155990,-0.00145060
-4.10000000,-2.59146960,-0.00144274
-4.10000000,-2.49143350,-0.00143334
-4.10000000,-2.39141450,-0.00142218
-4.10000000,-2.29193620,-0.00140872
-4.10000000,-2.19196240,-0.00139262
-4.10000000,-2.09205860,-0.00137358
-4.10000000,-1.99211220,-0.00135123
-4.10000000,-1.89218490,-0.00132530
-4.10000000,-1.79228770,-0.00129554
-4.10000000,-1.69291940,-0.00126194
-4.10000000,-1.59305480,-0.00122403
-4.10000000,-1.49317540,-0.00118192
-4.10000000,-1.39336130,-0.00113528
-4.10000000,-1.29358840,-0.00108435
-4.10000000,-1.19383370,-0.00102879
-4.10000000,-1.09461730,-0.00096899
-4.10000000,-0.99484554,-0.00090426
-4.10000000,-0.89516516,-0.00083495
-4.10000000,-0.79552126,-0.00076098
-4.10000000,-0.69591080,-0.00068231
-4.10000000,-0.59631169,-0.00059905
-4.10000000,-0.49720707,-0.00051146
-4.10000000,-0.39766807,-0.00041867
-4.10000000,-0.29815555,-0.00032115
-4.10000000,-0.19867396,-0.00021891
-4.10000000,-0.09922376,-0.00011176
-4.10000000,-0.00016077,-0.00000015
-4.00000000,-4.99144880,-0.00143789
-4.00000000,-4.89137930,-0.00143602
-4.00000000,-4.79130080,-0.00143443
-4.00000000,-4.69170590,-0.00143279
-4.00000000,-4.59163370,-0.00143112
-4.00000000,-4.49156020,-0.00142944
-4.00000000,-4.39149470,-0.00142767
-4.00000000,-4.29140970,-0.00142581
-4.00000000,-4.19146700,-0.00142399
-4.00000000,-4.09190950,-0.00142210
-4.00000000,-3.99184520,-0.00142010
-4.00000000,-3.89179900,-0.00141800
-4.00000000,-3.79172410,-0.00141588
-4.00000000,-3.69160140,-0.00141365
-4.00000000,-3.59153970,-0.00141132
-4.00000000,-3.49198740,-0.00140884
-4.00000000,-3.39192560,-0.00140620
-4.00000000,-3.29185480,-0.00140332
-4.00000000,-3.19179410,-0.00140018
-4.00000000,-3.09167400,-0.00139685
-4.00000000,-2.99160960,-0.00139306
-4.00000000,-2.89208710,-0.00138882
-4.00000000,-2.79203180,-0.00138398
-4.00000000,-2.69198270,-0.00137826
-4.00000000,-2.59187810,-0.00137159
-4.00000000,-2.49184330,-0.00136364
-4.00000000,-2.39181390,-0.00135413
-4.00000000,-2.29232650,-0.00134258
-4.00000000,-2.19233460,-0.00132873
-4.00000000,-2.09241010,-0.00131210
-4.00000000,-1.99245580,-0.00129239
-4.00000000,-1.89250780,-0.00126922
-4.00000000,-1.79259250,-0.00124236
-4.00000000,-1.69321250,-0.00121178
-4.00000000,-1.59332840,-0.00117687
-4.00000000,-1.49343220,-0.00113775
-4.00000000,-1.39359600,-0.00109437
-4.00000000,-1.29380750,-0.00104644
-4.00000000,-1.19403990,-0.00099402
-4.00000000,-1.09480540,-0.00093730
-4.00000000,-0.99500990,-0.00087559
-4.00000000,-0.89531630,-0.00080934
-4.00000000,-0.79565565,-0.00073843
-4.00000000,-0.69602988,-0.00066274
-4.00000000,-0.59641285,-0.00058234
