Vgs,	Vds,	Ids
-5.00000000,-4.98215040,-0.00303142
-5.00000000,-4.88209520,-0.00302738
-5.00000000,-4.78203350,-0.00302329
-5.00000000,-4.68244910,-0.00301911
-5.00000000,-4.58239240,-0.00301457
-5.00000000,-4.48234100,-0.00300997
-5.00000000,-4.38229360,-0.00300501
-5.00000000,-4.28222670,-0.00299986
-5.00000000,-4.18230480,-0.00299442
-5.00000000,-4.08277870,-0.00298855
-5.00000000,-3.98274010,-0.00298231
-5.00000000,-3.88271850,-0.00297542
-5.00000000,-3.78267220,-0.00296799
-5.00000000,-3.68258190,-0.00295977
-5.00000000,-3.58255910,-0.00295073
-5.00000000,-3.48305730,-0.00294060
-5.00000000,-3.38305520,-0.00292905
-5.00000000,-3.28303620,-0.00291607
-5.00000000,-3.18304560,-0.00290117
-5.00000000,-3.08299940,-0.00288413
-5.00000000,-2.98302840,-0.00286451
-5.00000000,-2.88361090,-0.00284218
-5.00000000,-2.78368530,-0.00281644
-5.00000000,-2.68377240,-0.00278694
-5.00000000,-2.58382600,-0.00275360
-5.00000000,-2.48396110,-0.00271595
-5.00000000,-2.38412100,-0.00267366
-5.00000000,-2.28484370,-0.00262683
-5.00000000,-2.18507360,-0.00257487
-5.00000000,-2.08538910,-0.00251763
-5.00000000,-1.98567830,-0.00245503
-5.00000000,-1.88599240,-0.00238703
-5.00000000,-1.78635980,-0.00231344
-5.00000000,-1.68725350,-0.00223456
-5.00000000,-1.58766250,-0.00214972
-5.00000000,-1.48806460,-0.00205893
-5.00000000,-1.38854220,-0.00196254
-5.00000000,-1.28906760,-0.00186030
-5.00000000,-1.18961890,-0.00175216
-5.00000000,-1.09071510,-0.00163888
-5.00000000,-0.99126373,-0.00151903
-5.00000000,-0.89191534,-0.00139345
-5.00000000,-0.79260655,-0.00126209
-5.00000000,-0.69334221,-0.00112477
-5.00000000,-0.59408412,-0.00098156
-5.00000000,-0.49533647,-0.00083337
-5.00000000,-0.39615838,-0.00067850
-5.00000000,-0.29701343,-0.00051764
-5.00000000,-0.19791209,-0.00035100
-5.00000000,-0.09884354,-0.00017831
-5.00000000,-0.00015237,-0.00000024
-4.90000000,-4.98283770,-0.00291540
-4.90000000,-4.88277730,-0.00291081
-4.90000000,-4.78271560,-0.00290682
-4.90000000,-4.68313770,-0.00290268
-4.90000000,-4.58307320,-0.00289854
-4.90000000,-4.48301790,-0.00289411
-4.90000000,-4.38297700,-0.00288955
-4.90000000,-4.28289850,-0.00288475
-4.90000000,-4.18297780,-0.00287957
-4.90000000,-4.08344630,-0.00287421
-4.90000000,-3.98340660,-0.00286843
-4.90000000,-3.88338120,-0.00286214
-4.90000000,-3.78332970,-0.00285542
-4.90000000,-3.68323940,-0.00284800
-4.90000000,-3.58321270,-0.00283978
-4.90000000,-3.48370060,-0.00283079
-4.90000000,-3.38368810,-0.00282047
-4.90000000,-3.28366260,-0.00280892
-4.90000000,-3.18366550,-0.00279567
-4.90000000,-3.08360890,-0.00278049
-4.90000000,-2.98362490,-0.00276305
-4.90000000,-2.88418800,-0.00274309
-4.90000000,-2.78423780,-0.00271995
-4.90000000,-2.68432090,-0.00269343
-4.90000000,-2.58435380,-0.00266309
-4.90000000,-2.48446810,-0.00262866
-4.90000000,-2.38461640,-0.00258981
-4.90000000,-2.28531060,-0.00254640
-4.90000000,-2.18552100,-0.00249798
-4.90000000,-2.08581960,-0.00244438
-4.90000000,-1.98608700,-0.00238545
-4.90000000,-1.88637890,-0.00232117
-4.90000000,-1.78671770,-0.00225129
-4.90000000,-1.68759460,-0.00217619
-4.90000000,-1.58798020,-0.00209502
-4.90000000,-1.48836410,-0.00200797
-4.90000000,-1.38881580,-0.00191518
-4.90000000,-1.28933080,-0.00181656
-4.90000000,-1.18985750,-0.00171208
-4.90000000,-1.09093170,-0.00160238
-4.90000000,-0.99145412,-0.00148606
-4.90000000,-0.89208676,-0.00136398
-4.90000000,-0.79275547,-0.00123609
-4.90000000,-0.69347163,-0.00110221
-4.90000000,-0.59420058,-0.00096244
-4.90000000,-0.49542663,-0.00081736
-4.90000000,-0.39623467,-0.00066584
-4.90000000,-0.29707362,-0.00050830
-4.90000000,-0.19794376,-0.00034478
-4.90000000,-0.09885497,-0.00017528
-4.90000000,-0.00015656,-0.00000028
-4.80000000,-4.98351730,-0.00279905
-4.80000000,-4.88345950,-0.00279466
-4.80000000,-4.78339260,-0.00279093
-4.80000000,-4.68380820,-0.00278706
-4.80000000,-4.58374630,-0.00278303
-4.80000000,-4.48368840,-0.00277895
-4.80000000,-4.38364490,-0.00277464
-4.80000000,-4.28356500,-0.00277012
-4.80000000,-4.18364570,-0.00276536
-4.80000000,-4.08411030,-0.00276040
-4.80000000,-3.98406540,-0.00275507
-4.80000000,-3.88403610,-0.00274933
-4.80000000,-3.78398720,-0.00274318
-4.80000000,-3.68388390,-0.00273652
-4.80000000,-3.58385590,-0.00272912
-4.80000000,-3.48433860,-0.00272098
-4.80000000,-3.38431830,-0.00271185
-4.80000000,-3.28428640,-0.00270159
-4.80000000,-3.18427890,-0.00268994
-4.80000000,-3.08421190,-0.00267644
-4.80000000,-2.98422020,-0.00266102
-4.80000000,-2.88477290,-0.00264325
-4.80000000,-2.78481230,-0.00262265
-4.80000000,-2.68486560,-0.00259886
-4.80000000,-2.58488810,-0.00257154
-4.80000000,-2.48498690,-0.00254032
-4.80000000,-2.38510400,-0.00250474
-4.80000000,-2.28578910,-0.00246484
-4.80000000,-2.18597620,-0.00241999
-4.80000000,-2.08624760,-0.00237006
-4.80000000,-1.98649420,-0.00231488
-4.80000000,-1.88676540,-0.00225430
-4.80000000,-1.78708090,-0.00218822
-4.80000000,-1.68794080,-0.00211683
-4.80000000,-1.58830310,-0.00203941
-4.80000000,-1.48866630,-0.00195613
-4.80000000,-1.38909590,-0.00186711
-4.80000000,-1.28958500,-0.00177228
-4.80000000,-1.19009360,-0.00167141
-4.80000000,-1.09114570,-0.00156533
-4.80000000,-0.99165224,-0.00145262
-4.80000000,-0.89226067,-0.00133410
-4.80000000,-0.79291106,-0.00120961
-4.80000000,-0.69360654,-0.00107923
-4.80000000,-0.59431142,-0.00094294
-4.80000000,-0.49552334,-0.00080123
-4.80000000,-0.39630651,-0.00065300
-4.80000000,-0.29712584,-0.00049877
-4.80000000,-0.19798184,-0.00033846
-4.80000000,-0.09887517,-0.00017212
-4.80000000,-0.00015757,-0.00000024
-4.70000000,-4.98418900,-0.00268394
-4.70000000,-4.88412860,-0.00267978
-4.70000000,-4.78406310,-0.00267624
-4.70000000,-4.68447470,-0.00267269
-4.70000000,-4.58440900,-0.00266893
-4.70000000,-4.48435760,-0.00266507
-4.70000000,-4.38430630,-0.00266102
-4.70000000,-4.28422900,-0.00265682
-4.70000000,-4.18430060,-0.00265239
-4.70000000,-4.08476260,-0.00264773
-4.70000000,-3.98471900,-0.00264285
-4.70000000,-3.88468970,-0.00263757
-4.70000000,-3.78463040,-0.00263193
-4.70000000,-3.68453360,-0.00262584
-4.70000000,-3.58449660,-0.00261922
-4.70000000,-3.48497280,-0.00261200
-4.70000000,-3.38494860,-0.00260377
-4.70000000,-3.28491280,-0.00259469
-4.70000000,-3.18489230,-0.00258427
-4.70000000,-3.08482010,-0.00257244
-4.70000000,-2.98481410,-0.00255882
-4.70000000,-2.88535650,-0.00254324
-4.70000000,-2.78538160,-0.00252495
-4.70000000,-2.68542330,-0.00250379
-4.70000000,-2.58542500,-0.00247925
-4.70000000,-2.48550950,-0.00245115
-4.70000000,-2.38560720,-0.00241884
-4.70000000,-2.28626640,-0.00238236
-4.70000000,-2.18643780,-0.00234103
-4.70000000,-2.08668850,-0.00229476
-4.70000000,-1.98691440,-0.00224326
-4.70000000,-1.88716350,-0.00218645
-4.70000000,-1.78746080,-0.00212410
-4.70000000,-1.68829880,-0.00205657
-4.70000000,-1.58863770,-0.00198292
-4.70000000,-1.48897760,-0.00190343
-4.70000000,-1.38938640,-0.00181825
-4.70000000,-1.28984440,-0.00172715
-4.70000000,-1.19033740,-0.00163001
-4.70000000,-1.09136870,-0.00152759
-4.70000000,-0.99185337,-0.00141857
-4.70000000,-0.89244033,-0.00130366
-4.70000000,-0.79306782,-0.00118276
-4.70000000,-0.69374381,-0.00105592
-4.70000000,-0.59443154,-0.00092299
-4.70000000,-0.49562017,-0.00078481
-4.70000000,-0.39638332,-0.00063998
-4.70000000,-0.29718093,-0.00048900
-4.70000000,-0.19801887,-0.00033202
-4.70000000,-0.09889469,-0.00016894
-4.70000000,-0.00015482,-0.00000025
-4.60000000,-4.98484910,-0.00257013
-4.60000000,-4.88478740,-0.00256629
-4.60000000,-4.78472190,-0.00256297
-4.60000000,-4.68513220,-0.00255956
-4.60000000,-4.58506910,-0.00255602
-4.60000000,-4.48500860,-0.00255237
-4.60000000,-4.38495990,-0.00254863
-4.60000000,-4.28488130,-0.00254467
-4.60000000,-4.18495680,-0.00254049
-4.60000000,-4.08541750,-0.00253627
-4.60000000,-3.98537010,-0.00253164
-4.60000000,-3.88533160,-0.00252686
-4.60000000,-3.78527620,-0.00252166
-4.60000000,-3.68517170,-0.00251620
-4.60000000,-3.58513590,-0.00251017
-4.60000000,-3.48560300,-0.00250362
-4.60000000,-3.38558150,-0.00249634
-4.60000000,-3.28553010,-0.00248821
-4.60000000,-3.18550830,-0.00247907
-4.60000000,-3.08542840,-0.00246869
-4.60000000,-2.98541200,-0.00245666
-4.60000000,-2.88593490,-0.00244288
-4.60000000,-2.78595480,-0.00242686
-4.60000000,-2.68598220,-0.00240816
-4.60000000,-2.58597360,-0.00238645
-4.60000000,-2.48603470,-0.00236127
-4.60000000,-2.38611560,-0.00233211
-4.60000000,-2.28675660,-0.00229901
-4.60000000,-2.18690210,-0.00226109
-4.60000000,-2.08713980,-0.00221843
-4.60000000,-1.98733850,-0.00217072
-4.60000000,-1.88756680,-0.00211765
-4.60000000,-1.78783950,-0.00205924
-4.60000000,-1.68864760,-0.00199546
-4.60000000,-1.58897100,-0.00192565
-4.60000000,-1.48928880,-0.00185004
-4.60000000,-1.38967300,-0.00176863
-4.60000000,-1.29011670,-0.00168137
-4.60000000,-1.19057990,-0.00158803
-4.60000000,-1.09159570,-0.00148930
-4.60000000,-0.99205567,-0.00138401
-4.60000000,-0.89261738,-0.00127278
-4.60000000,-0.79322904,-0.00115546
-4.60000000,-0.69388042,-0.00103226
-4.60000000,-0.59454853,-0.00090288
-4.60000000,-0.49571308,-0.00076821
-4.60000000,-0.39645830,-0.00062671
-4.60000000,-0.29723903,-0.00047926
-4.60000000,-0.19805891,-0.00032553
-4.60000000,-0.09891360,-0.00016572
-4.60000000,-0.00015730,-0.00000028
-4.50000000,-4.98550790,-0.00245798
-4.50000000,-4.88544620,-0.00245429
-4.50000000,-4.78537940,-0.00245121
-4.50000000,-4.68578970,-0.00244796
-4.50000000,-4.58572400,-0.00244459
-4.50000000,-4.48565960,-0.00244120
-4.50000000,-4.38560700,-0.00243765
-4.50000000,-4.28552850,-0.00243396
-4.50000000,-4.18560270,-0.00243012
-4.50000000,-4.08606330,-0.00242615
-4.50000000,-3.98601070,-0.00242190
-4.50000000,-3.88597750,-0.00241751
-4.50000000,-3.78591560,-0.00241274
-4.50000000,-3.68580190,-0.00240765
-4.50000000,-3.58576490,-0.00240223
-4.50000000,-3.48623460,-0.00239635
-4.50000000,-3.38620010,-0.00238984
-4.50000000,-3.28614870,-0.00238257
-4.50000000,-3.18612300,-0.00237450
-4.50000000,-3.08602620,-0.00236532
-4.50000000,-2.98600720,-0.00235479
-4.50000000,-2.88652490,-0.00234272
-4.50000000,-2.78652410,-0.00232866
-4.50000000,-2.68653980,-0.00231225
-4.50000000,-2.58650920,-0.00229304
-4.50000000,-2.48655990,-0.00227069
-4.50000000,-2.38662650,-0.00224460
-4.50000000,-2.28724940,-0.00221480
-4.50000000,-2.18737810,-0.00218042
-4.50000000,-2.08758850,-0.00214138
-4.50000000,-1.98777160,-0.00209729
-4.50000000,-1.88797010,-0.00204794
-4.50000000,-1.78822470,-0.00199336
-4.50000000,-1.68901590,-0.00193344
-4.50000000,-1.58930950,-0.00186764
-4.50000000,-1.48960520,-0.00179588
-4.50000000,-1.38996610,-0.00171834
-4.50000000,-1.29038650,-0.00163491
-4.50000000,-1.19083410,-0.00154541
-4.50000000,-1.09181740,-0.00145048
-4.50000000,-0.99225759,-0.00134894
-4.50000000,-0.89280150,-0.00124143
-4.50000000,-0.79338777,-0.00112786
-4.50000000,-0.69402136,-0.00100818
-4.50000000,-0.59466696,-0.00088246
-4.50000000,-0.49581122,-0.00075124
-4.50000000,-0.39653930,-0.00061326
-4.50000000,-0.29729530,-0.00046925
-4.50000000,-0.19809620,-0.00031894
-4.50000000,-0.09893232,-0.00016245
-4.50000000,-0.00015844,-0.00000029
-4.40000000,-4.98615630,-0.00234722
-4.40000000,-4.88609210,-0.00234378
-4.40000000,-4.78602260,-0.00234083
-4.40000000,-4.68643430,-0.00233774
-4.40000000,-4.58636850,-0.00233461
-4.40000000,-4.48630670,-0.00233141
-4.40000000,-4.38625020,-0.00232807
-4.40000000,-4.28616780,-0.00232462
-4.40000000,-4.18623810,-0.00232103
-4.40000000,-4.08669620,-0.00231730
-4.40000000,-3.98664620,-0.00231344
-4.40000000,-3.88660510,-0.00230934
-4.40000000,-3.78653940,-0.00230499
-4.40000000,-3.68643220,-0.00230037
-4.40000000,-3.58638870,-0.00229543
-4.40000000,-3.48685320,-0.00229002
-4.40000000,-3.38681610,-0.00228426
-4.40000000,-3.28675950,-0.00227781
-4.40000000,-3.18673250,-0.00227060
-4.40000000,-3.08663310,-0.00226266
-4.40000000,-2.98660380,-0.00225332
-4.40000000,-2.88710980,-0.00224281
-4.40000000,-2.78710250,-0.00223053
-4.40000000,-2.68710530,-0.00221618
-4.40000000,-2.58705520,-0.00219937
-4.40000000,-2.48708770,-0.00217962
-4.40000000,-2.38714010,-0.00215654
-4.40000000,-2.28774740,-0.00212986
-4.40000000,-2.18784880,-0.00209885
-4.40000000,-2.08804110,-0.00206336
-4.40000000,-1.98820090,-0.00202299
-4.40000000,-1.88838770,-0.00197745
-4.40000000,-1.78861630,-0.00192664
-4.40000000,-1.68937770,-0.00187061
-4.40000000,-1.58965180,-0.00180865
-4.40000000,-1.48992040,-0.00174090
-4.40000000,-1.39026440,-0.00166729
-4.40000000,-1.29066010,-0.00158773
-4.40000000,-1.19107920,-0.00150212
-4.40000000,-1.09205220,-0.00141108
-4.40000000,-0.99246499,-0.00131330
-4.40000000,-0.89298810,-0.00120957
-4.40000000,-0.79355225,-0.00109980
-4.40000000,-0.69416464,-0.00098387
-4.40000000,-0.59478630,-0.00086175
-4.40000000,-0.49591421,-0.00073407
-4.40000000,-0.39662096,-0.00059966
-4.40000000,-0.29735457,-0.00045905
-4.40000000,-0.19813311,-0.00031229
-4.40000000,-0.09895228,-0.00015912
-4.40000000,-0.00015425,-0.00000022
-4.30000000,-4.98678790,-0.00223818
-4.30000000,-4.88672750,-0.00223492
-4.30000000,-4.78665810,-0.00223217
-4.30000000,-4.68706710,-0.00222926
-4.30000000,-4.58699620,-0.00222636
-4.30000000,-4.48693570,-0.00222326
-4.30000000,-4.38688180,-0.00222011
-4.30000000,-4.28680070,-0.00221696
-4.30000000,-4.18686970,-0.00221354
-4.30000000,-4.08732120,-0.00221013
-4.30000000,-3.98726600,-0.00220641
-4.30000000,-3.88723020,-0.00220261
-4.30000000,-3.78716310,-0.00219864
-4.30000000,-3.68705210,-0.00219439
-4.30000000,-3.58700340,-0.00218984
-4.30000000,-3.48746400,-0.00218509
-4.30000000,-3.38742300,-0.00217974
-4.30000000,-3.28736770,-0.00217403
-4.30000000,-3.18732780,-0.00216763
-4.30000000,-3.08722710,-0.00216052
-4.30000000,-2.98718990,-0.00215247
-4.30000000,-2.88768950,-0.00214331
-4.30000000,-2.78767440,-0.00213256
-4.30000000,-2.68766030,-0.00212013
-4.30000000,-2.58761020,-0.00210552
-4.30000000,-2.48762590,-0.00208823
-4.30000000,-2.38765620,-0.00206797
-4.30000000,-2.28823890,-0.00204430
-4.30000000,-2.18834030,-0.00201654
-4.30000000,-2.08850800,-0.00198452
-4.30000000,-1.98864570,-0.00194774
-4.30000000,-1.88880400,-0.00190598
-4.30000000,-1.78901060,-0.00185912
-4.30000000,-1.68975250,-0.00180693
-4.30000000,-1.59000590,-0.00174892
-4.30000000,-1.49025370,-0.00168508
-4.30000000,-1.39056920,-0.00161546
-4.30000000,-1.29094410,-0.00153990
-4.30000000,-1.19133590,-0.00145825
-4.30000000,-1.09228170,-0.00137103
-4.30000000,-0.99267737,-0.00127723
-4.30000000,-0.89317876,-0.00117729
-4.30000000,-0.79372093,-0.00107130
-4.30000000,-0.69430911,-0.00095913
-4.30000000,-0.59491022,-0.00084073
-4.30000000,-0.49601326,-0.00071665
-4.30000000,-0.39670039,-0.00058585
-4.30000000,-0.29741738,-0.00044876
-4.30000000,-0.19817341,-0.00030541
-4.30000000,-0.09897082,-0.00015579
-4.30000000,-0.00015615,-0.00000024
-4.20000000,-4.98741690,-0.00213077
-4.20000000,-4.88735260,-0.00212767
-4.20000000,-4.78728180,-0.00212502
-4.20000000,-4.68769350,-0.00212234
-4.20000000,-4.58762130,-0.00211954
-4.20000000,-4.48755820,-0.00211665
-4.20000000,-4.38750170,-0.00211381
-4.20000000,-4.28741800,-0.00211072
-4.20000000,-4.18748440,-0.00210764
-4.20000000,-4.08793850,-0.00210441
-4.20000000,-3.98788980,-0.00210100
-4.20000000,-3.88784620,-0.00209747
-4.20000000,-3.78777530,-0.00209378
-4.20000000,-3.68766550,-0.00208988
-4.20000000,-3.58761680,-0.00208567
-4.20000000,-3.48807220,-0.00208139
-4.20000000,-3.38802470,-0.00207670
-4.20000000,-3.28796420,-0.00207144
-4.20000000,-3.18792690,-0.00206578
-4.20000000,-3.08781590,-0.00205953
-4.20000000,-2.98777740,-0.00205245
-4.20000000,-2.88827310,-0.00204440
-4.20000000,-2.78824630,-0.00203510
-4.20000000,-2.68822440,-0.00202434
-4.20000000,-2.58815750,-0.00201164
-4.20000000,-2.48816020,-0.00199670
-4.20000000,-2.38817890,-0.00197898
-4.20000000,-2.28874730,-0.00195825
-4.20000000,-2.18881760,-0.00193361
-4.20000000,-2.08897090,-0.00190500
-4.20000000,-1.98908400,-0.00187173
-4.20000000,-1.88922420,-0.00183372
-4.20000000,-1.78941130,-0.00179061
-4.20000000,-1.69012990,-0.00174233
-4.20000000,-1.59035730,-0.00168828
-4.20000000,-1.49058180,-0.00162856
-4.20000000,-1.39087520,-0.00156294
-4.20000000,-1.29122420,-0.00149134
-4.20000000,-1.19159790,-0.00141371
-4.20000000,-1.09251770,-0.00133042
-4.20000000,-0.99288884,-0.00124058
-4.20000000,-0.89336850,-0.00114459
-4.20000000,-0.79389039,-0.00104238
-4.20000000,-0.69445646,-0.00093394
-4.20000000,-0.59503244,-0.00081928
-4.20000000,-0.49611821,-0.00069896
-4.20000000,-0.39678230,-0.00057179
-4.20000000,-0.29747392,-0.00043838
-4.20000000,-0.19821424,-0.00029855
-4.20000000,-0.09899260,-0.00015233
-4.20000000,-0.00015668,-0.00000027
-4.10000000,-4.98803550,-0.00202505
-4.10000000,-4.88797120,-0.00202229
-4.10000000,-4.78789910,-0.00201978
-4.10000000,-4.68830300,-0.00201712
-4.10000000,-4.58823080,-0.00201453
-4.10000000,-4.48817030,-0.00201190
-4.10000000,-4.38811380,-0.00200913
-4.10000000,-4.28803010,-0.00200627
-4.10000000,-4.18809650,-0.00200331
-4.10000000,-4.08855070,-0.00200035
-4.10000000,-3.98849420,-0.00199720
-4.10000000,-3.88844790,-0.00199393
-4.10000000,-3.78838220,-0.00199052
-4.10000000,-3.68826980,-0.00198693
-4.10000000,-3.58821330,-0.00198312
-4.10000000,-3.48867010,-0.00197915
-4.10000000,-3.38862520,-0.00197484
-4.10000000,-3.28855950,-0.00197017
-4.10000000,-3.18851310,-0.00196511
-4.10000000,-3.08840330,-0.00195958
-4.10000000,-2.98835320,-0.00195341
-4.10000000,-2.88884110,-0.00194638
-4.10000000,-2.78881170,-0.00193831
-4.10000000,-2.68878080,-0.00192901
-4.10000000,-2.58869960,-0.00191809
-4.10000000,-2.48869840,-0.00190515
-4.10000000,-2.38870150,-0.00188988
-4.10000000,-2.28925430,-0.00187179
-4.10000000,-2.18930520,-0.00185024
-4.10000000,-2.08943260,-0.00182479
-4.10000000,-1.98953530,-0.00179513
-4.10000000,-1.88965730,-0.00176076
-4.10000000,-1.78980940,-0.00172143
-4.10000000,-1.69051120,-0.00167704
-4.10000000,-1.59071270,-0.00162698
-4.10000000,-1.49091760,-0.00157125
-4.10000000,-1.39118650,-0.00150960
-4.10000000,-1.29151600,-0.00144206
-4.10000000,-1.19186760,-0.00136855
-4.10000000,-1.09276280,-0.00128921
-4.10000000,-0.99310986,-0.00120337
-4.10000000,-0.89356374,-0.00111126
-4.10000000,-0.79406286,-0.00101301
-4.10000000,-0.69460524,-0.00090849
-4.10000000,-0.59516081,-0.00079760
-4.10000000,-0.49622643,-0.00068101
-4.10000000,-0.39686435,-0.00055761
-4.10000000,-0.29753843,-0.00042774
-4.10000000,-0.19825886,-0.00029155
-4.10000000,-0.09901575,-0.00014890
-4.10000000,-0.00015638,-0.00000023
-4.00000000,-4.98864110,-0.00192122
-4.00000000,-4.88857290,-0.00191852
-4.00000000,-4.78850090,-0.00191619
-4.00000000,-4.68890740,-0.00191379
-4.00000000,-4.58883770,-0.00191132
-4.00000000,-4.48877070,-0.00190883
-4.00000000,-4.38871420,-0.00190625
-4.00000000,-4.28862790,-0.00190356
-4.00000000,-4.18869820,-0.00190089
-4.00000000,-4.08914590,-0.00189805
-4.00000000,-3.98909200,-0.00189516
-4.00000000,-3.88904320,-0.00189206
-4.00000000,-3.78897480,-0.00188892
-4.00000000,-3.68885470,-0.00188561
-4.00000000,-3.58880340,-0.00188212
-4.00000000,-3.48925890,-0.00187846
-4.00000000,-3.38921260,-0.00187452
-4.00000000,-3.28914050,-0.00187035
-4.00000000,-3.18909670,-0.00186583
-4.00000000,-3.08898040,-0.00186091
-4.00000000,-2.98892510,-0.00185540
-4.00000000,-2.88940650,-0.00184931
-4.00000000,-2.78937070,-0.00184231
-4.00000000,-2.68933190,-0.00183426
-4.00000000,-2.58924680,-0.00182485
-4.00000000,-2.48923010,-0.00181376
-4.00000000,-2.38922280,-0.00180064
-4.00000000,-2.28975620,-0.00178504
-4.00000000,-2.18979410,-0.00176624
-4.00000000,-2.08990470,-0.00174402
-4.00000000,-1.98998540,-0.00171770
-4.00000000,-1.89008400,-0.00168699
-4.00000000,-1.79022180,-0.00165141
-4.00000000,-1.69089630,-0.00161095
-4.00000000,-1.59107840,-0.00156481
-4.00000000,-1.49125350,-0.00151307
-4.00000000,-1.39150160,-0.00145555
-4.00000000,-1.29180520,-0.00139210
-4.00000000,-1.19212700,-0.00132255
-4.00000000,-1.09300400,-0.00124734
-4.00000000,-0.99333074,-0.00116556
-4.00000000,-0.89375898,-0.00107745
-4.00000000,-0.79423650,-0.00098313
-4.00000000,-0.69475481,-0.00088253
-4.00000000,-0.59529114,-0.00077560
