Vgs,	Vds,	Ids
-5.00000000,-4.99504620,-0.00082311
-5.00000000,-4.89496640,-0.00082279
-5.00000000,-4.79488520,-0.00082244
-5.00000000,-4.69528260,-0.00082205
-5.00000000,-4.59520000,-0.00082169
-5.00000000,-4.49512270,-0.00082125
-5.00000000,-4.39504800,-0.00082079
-5.00000000,-4.29495230,-0.00082040
-5.00000000,-4.19500350,-0.00081994
-5.00000000,-4.09544080,-0.00081926
-5.00000000,-3.99536870,-0.00081873
-5.00000000,-3.89530960,-0.00081794
-5.00000000,-3.79522430,-0.00081722
-5.00000000,-3.69509900,-0.00081632
-5.00000000,-3.59502570,-0.00081526
-5.00000000,-3.49547070,-0.00081400
-5.00000000,-3.39540900,-0.00081230
-5.00000000,-3.29532770,-0.00081029
-5.00000000,-3.19526960,-0.00080764
-5.00000000,-3.09514170,-0.00080423
-5.00000000,-2.99508250,-0.00080003
-5.00000000,-2.89556130,-0.00079488
-5.00000000,-2.79551770,-0.00078859
-5.00000000,-2.69547640,-0.00078105
-5.00000000,-2.59538480,-0.00077217
-5.00000000,-2.49536290,-0.00076201
-5.00000000,-2.39534260,-0.00075038
-5.00000000,-2.29586950,-0.00073732
-5.00000000,-2.19588540,-0.00072275
-5.00000000,-2.09596470,-0.00070665
-5.00000000,-1.99599100,-0.00068900
-5.00000000,-1.89601960,-0.00066980
-5.00000000,-1.79607580,-0.00064907
-5.00000000,-1.69664140,-0.00062679
-5.00000000,-1.59669110,-0.00060290
-5.00000000,-1.49671580,-0.00057735
-5.00000000,-1.39679140,-0.00055031
-5.00000000,-1.29688890,-0.00052163
-5.00000000,-1.19697980,-0.00049133
-5.00000000,-1.09760530,-0.00045954
-5.00000000,-0.99764591,-0.00042601
-5.00000000,-0.89776777,-0.00039086
-5.00000000,-0.79790725,-0.00035411
-5.00000000,-0.69806418,-0.00031572
-5.00000000,-0.59820973,-0.00027564
-5.00000000,-0.49883506,-0.00023413
-5.00000000,-0.39900750,-0.00019075
-5.00000000,-0.29918906,-0.00014569
-5.00000000,-0.19938006,-0.00009883
-5.00000000,-0.09959141,-0.00005024
-5.00000000,-0.00015721,-0.00000010
-4.90000000,-4.99524720,-0.00078891
-4.90000000,-4.89517130,-0.00078845
-4.90000000,-4.79508500,-0.00078803
-4.90000000,-4.69548110,-0.00078764
-4.90000000,-4.59539970,-0.00078733
-4.90000000,-4.49532110,-0.00078696
-4.90000000,-4.39525030,-0.00078654
-4.90000000,-4.29515330,-0.00078612
-4.90000000,-4.19520450,-0.00078562
-4.90000000,-4.09564180,-0.00078508
-4.90000000,-3.99556850,-0.00078458
-4.90000000,-3.89550930,-0.00078402
-4.90000000,-3.79542400,-0.00078327
-4.90000000,-3.69529480,-0.00078256
-4.90000000,-3.59522410,-0.00078162
-4.90000000,-3.49566660,-0.00078055
-4.90000000,-3.39560090,-0.00077918
-4.90000000,-3.29552100,-0.00077750
-4.90000000,-3.19545510,-0.00077540
-4.90000000,-3.09532980,-0.00077263
-4.90000000,-2.99525890,-0.00076917
-4.90000000,-2.89573640,-0.00076484
-4.90000000,-2.79568630,-0.00075942
-4.90000000,-2.69564500,-0.00075290
-4.90000000,-2.59554950,-0.00074509
-4.90000000,-2.49552240,-0.00073597
-4.90000000,-2.39549700,-0.00072536
-4.90000000,-2.29601220,-0.00071347
-4.90000000,-2.19602020,-0.00070005
-4.90000000,-2.09608270,-0.00068510
-4.90000000,-1.99611290,-0.00066855
-4.90000000,-1.89613250,-0.00065053
-4.90000000,-1.79618080,-0.00063086
-4.90000000,-1.69674380,-0.00060972
-4.90000000,-1.59678580,-0.00058695
-4.90000000,-1.49680400,-0.00056252
-4.90000000,-1.39686790,-0.00053649
-4.90000000,-1.29695630,-0.00050888
-4.90000000,-1.19704980,-0.00047971
-4.90000000,-1.09766490,-0.00044892
-4.90000000,-0.99769982,-0.00041639
-4.90000000,-0.89781868,-0.00038226
-4.90000000,-0.79794834,-0.00034660
-4.90000000,-0.69810160,-0.00030913
-4.90000000,-0.59824179,-0.00027002
-4.90000000,-0.49885848,-0.00022949
-4.90000000,-0.39902949,-0.00018705
-4.90000000,-0.29920489,-0.00014286
-4.90000000,-0.19939328,-0.00009704
-4.90000000,-0.09959514,-0.00004932
-4.90000000,-0.00015852,-0.00000005
-4.80000000,-4.99544690,-0.00075487
-4.80000000,-4.89537100,-0.00075442
-4.80000000,-4.79528470,-0.00075406
-4.80000000,-4.69568210,-0.00075377
-4.80000000,-4.59559690,-0.00075339
-4.80000000,-4.49551820,-0.00075301
-4.80000000,-4.39545390,-0.00075264
-4.80000000,-4.29535180,-0.00075222
-4.80000000,-4.19540550,-0.00075180
-4.80000000,-4.09584020,-0.00075139
-4.80000000,-3.99576690,-0.00075089
-4.80000000,-3.89571030,-0.00075028
-4.80000000,-3.79562250,-0.00074969
-4.80000000,-3.69549200,-0.00074902
-4.80000000,-3.59542120,-0.00074828
-4.80000000,-3.49586110,-0.00074739
-4.80000000,-3.39579410,-0.00074630
-4.80000000,-3.29570900,-0.00074490
-4.80000000,-3.19564570,-0.00074322
-4.80000000,-3.09551520,-0.00074103
-4.80000000,-2.99544440,-0.00073820
-4.80000000,-2.89591410,-0.00073465
-4.80000000,-2.79585750,-0.00073009
-4.80000000,-2.69581100,-0.00072453
-4.80000000,-2.59570900,-0.00071766
-4.80000000,-2.49567420,-0.00070958
-4.80000000,-2.39564090,-0.00070015
-4.80000000,-2.29615220,-0.00068935
-4.80000000,-2.19615640,-0.00067702
-4.80000000,-2.09621630,-0.00066322
-4.80000000,-1.99623740,-0.00064779
-4.80000000,-1.89624920,-0.00063086
-4.80000000,-1.79629110,-0.00061239
-4.80000000,-1.69684370,-0.00059232
-4.80000000,-1.59688050,-0.00057067
-4.80000000,-1.49689480,-0.00054733
-4.80000000,-1.39695220,-0.00052247
-4.80000000,-1.29703280,-0.00049589
-4.80000000,-1.19712120,-0.00046777
-4.80000000,-1.09772330,-0.00043815
-4.80000000,-0.99775504,-0.00040674
-4.80000000,-0.89786566,-0.00037358
-4.80000000,-0.79799806,-0.00033884
-4.80000000,-0.69814518,-0.00030241
-4.80000000,-0.59827699,-0.00026436
-4.80000000,-0.49888910,-0.00022478
-4.80000000,-0.39904911,-0.00018327
-4.80000000,-0.29921811,-0.00014011
-4.80000000,-0.19939982,-0.00009530
-4.80000000,-0.09959743,-0.00004844
-4.80000000,-0.00016008,-0.00000009
-4.70000000,-4.99564280,-0.00072134
-4.70000000,-4.89556290,-0.00072091
-4.70000000,-4.79548180,-0.00072062
-4.70000000,-4.69587790,-0.00072028
-4.70000000,-4.59579400,-0.00072004
-4.70000000,-4.49571530,-0.00071962
-4.70000000,-4.39564460,-0.00071925
-4.70000000,-4.29554110,-0.00071885
-4.70000000,-4.19560000,-0.00071852
-4.70000000,-4.09603470,-0.00071807
-4.70000000,-3.99596790,-0.00071766
-4.70000000,-3.89590090,-0.00071717
-4.70000000,-3.79581570,-0.00071666
-4.70000000,-3.69568520,-0.00071605
-4.70000000,-3.59561570,-0.00071543
-4.70000000,-3.49605690,-0.00071465
-4.70000000,-3.39598220,-0.00071379
-4.70000000,-3.29590350,-0.00071264
-4.70000000,-3.19583120,-0.00071131
-4.70000000,-3.09569810,-0.00070951
-4.70000000,-2.99562850,-0.00070715
-4.70000000,-2.89608920,-0.00070429
-4.70000000,-2.79602870,-0.00070057
-4.70000000,-2.69598480,-0.00069585
-4.70000000,-2.59587760,-0.00069005
-4.70000000,-2.49582980,-0.00068301
-4.70000000,-2.39579000,-0.00067456
-4.70000000,-2.29629360,-0.00066486
-4.70000000,-2.19628870,-0.00065368
-4.70000000,-2.09634210,-0.00064100
-4.70000000,-1.99635680,-0.00062674
-4.70000000,-1.89636330,-0.00061100
-4.70000000,-1.79639610,-0.00059359
-4.70000000,-1.69694350,-0.00057478
-4.70000000,-1.59697510,-0.00055423
-4.70000000,-1.49698560,-0.00053198
-4.70000000,-1.39703260,-0.00050828
-4.70000000,-1.29711060,-0.00048278
-4.70000000,-1.19718860,-0.00045569
-4.70000000,-1.09779460,-0.00042710
-4.70000000,-0.99781628,-0.00039679
-4.70000000,-0.89792519,-0.00036474
-4.70000000,-0.79804203,-0.00033101
-4.70000000,-0.69818273,-0.00029563
-4.70000000,-0.59831206,-0.00025858
-4.70000000,-0.49891645,-0.00021999
-4.70000000,-0.39907359,-0.00017953
-4.70000000,-0.29923407,-0.00013727
-4.70000000,-0.19941487,-0.00009330
-4.70000000,-0.09960634,-0.00004759
-4.70000000,-0.00015788,-0.00000002
-4.60000000,-4.99583470,-0.00068841
-4.60000000,-4.89576000,-0.00068800
-4.60000000,-4.79567890,-0.00068773
-4.60000000,-4.69607110,-0.00068745
-4.60000000,-4.59599110,-0.00068715
-4.60000000,-4.49590860,-0.00068683
-4.60000000,-4.39583780,-0.00068647
-4.60000000,-4.29573560,-0.00068610
-4.60000000,-4.19578420,-0.00068579
-4.60000000,-4.09622280,-0.00068538
-4.60000000,-3.99615200,-0.00068495
-4.60000000,-3.89609670,-0.00068455
-4.60000000,-3.79600760,-0.00068407
-4.60000000,-3.69587450,-0.00068356
-4.60000000,-3.59580250,-0.00068302
-4.60000000,-3.49624500,-0.00068234
-4.60000000,-3.39617020,-0.00068160
-4.60000000,-3.29608640,-0.00068064
-4.60000000,-3.19602050,-0.00067957
-4.60000000,-3.09588220,-0.00067820
-4.60000000,-2.99580750,-0.00067639
-4.60000000,-2.89626550,-0.00067402
-4.60000000,-2.79620640,-0.00067101
-4.60000000,-2.69614430,-0.00066704
-4.60000000,-2.59603580,-0.00066219
-4.60000000,-2.49599060,-0.00065614
-4.60000000,-2.39594310,-0.00064881
-4.60000000,-2.29644010,-0.00064024
-4.60000000,-2.19642740,-0.00063013
-4.60000000,-2.09647830,-0.00061859
-4.60000000,-1.99647480,-0.00060545
-4.60000000,-1.89647870,-0.00059083
-4.60000000,-1.79650760,-0.00057468
-4.60000000,-1.69704860,-0.00055696
-4.60000000,-1.59707370,-0.00053750
-4.60000000,-1.49706990,-0.00051648
-4.60000000,-1.39711690,-0.00049378
-4.60000000,-1.29718710,-0.00046946
-4.60000000,-1.19726510,-0.00044351
-4.60000000,-1.09785290,-0.00041602
-4.60000000,-0.99787752,-0.00038671
-4.60000000,-0.89797505,-0.00035576
-4.60000000,-0.79808600,-0.00032316
-4.60000000,-0.69822291,-0.00028873
-4.60000000,-0.59834360,-0.00025267
-4.60000000,-0.49894367,-0.00021512
-4.60000000,-0.39909269,-0.00017565
-4.60000000,-0.29925357,-0.00013439
-4.60000000,-0.19942468,-0.00009144
-4.60000000,-0.09961154,-0.00004656
-4.60000000,-0.00015931,-0.00000006
-4.50000000,-4.99602140,-0.00065607
-4.50000000,-4.89594810,-0.00065570
-4.50000000,-4.79586310,-0.00065547
-4.50000000,-4.69625920,-0.00065517
-4.50000000,-4.59617650,-0.00065487
-4.50000000,-4.49609660,-0.00065459
-4.50000000,-4.39602460,-0.00065434
-4.50000000,-4.29591980,-0.00065396
-4.50000000,-4.19597610,-0.00065361
-4.50000000,-4.09641340,-0.00065326
-4.50000000,-3.99633880,-0.00065293
-4.50000000,-3.89627700,-0.00065251
-4.50000000,-3.79618660,-0.00065209
-4.50000000,-3.69605740,-0.00065163
-4.50000000,-3.59598400,-0.00065120
-4.50000000,-3.49642390,-0.00065058
-4.50000000,-3.39635050,-0.00064998
-4.50000000,-3.29626920,-0.00064922
-4.50000000,-3.19619690,-0.00064830
-4.50000000,-3.09605990,-0.00064719
-4.50000000,-2.99598390,-0.00064578
-4.50000000,-2.89643800,-0.00064393
-4.50000000,-2.79637750,-0.00064147
-4.50000000,-2.69631290,-0.00063830
-4.50000000,-2.59619660,-0.00063423
-4.50000000,-2.49613450,-0.00062916
-4.50000000,-2.39608960,-0.00062286
-4.50000000,-2.29658540,-0.00061531
-4.50000000,-2.19656100,-0.00060629
-4.50000000,-2.09660930,-0.00059594
-4.50000000,-1.99660190,-0.00058396
-4.50000000,-1.89659670,-0.00057045
-4.50000000,-1.79661140,-0.00055543
-4.50000000,-1.69715620,-0.00053889
-4.50000000,-1.59717480,-0.00052061
-4.50000000,-1.49716190,-0.00050073
-4.50000000,-1.39720120,-0.00047910
-4.50000000,-1.29726620,-0.00045601
-4.50000000,-1.19733510,-0.00043114
-4.50000000,-1.09792430,-0.00040473
-4.50000000,-0.99793235,-0.00037652
-4.50000000,-0.89802478,-0.00034666
-4.50000000,-0.79813363,-0.00031504
-4.50000000,-0.69826517,-0.00028186
-4.50000000,-0.59837697,-0.00024682
-4.50000000,-0.49897246,-0.00021026
-4.50000000,-0.39911638,-0.00017175
-4.50000000,-0.29926783,-0.00013147
-4.50000000,-0.19943620,-0.00008941
-4.50000000,-0.09961505,-0.00004563
-4.50000000,-0.00015839,-0.00000007
-4.40000000,-4.99621340,-0.00062431
-4.40000000,-4.89613350,-0.00062401
-4.40000000,-4.79604980,-0.00062372
-4.40000000,-4.69644070,-0.00062353
-4.40000000,-4.59635940,-0.00062323
-4.40000000,-4.49628080,-0.00062297
-4.40000000,-4.39621130,-0.00062268
-4.40000000,-4.29610910,-0.00062233
-4.40000000,-4.19616290,-0.00062204
-4.40000000,-4.09660020,-0.00062172
-4.40000000,-3.99652810,-0.00062146
-4.40000000,-3.89646760,-0.00062102
-4.40000000,-3.79637460,-0.00062068
-4.40000000,-3.69624020,-0.00062031
-4.40000000,-3.59616950,-0.00061985
-4.40000000,-3.49660940,-0.00061929
-4.40000000,-3.39653850,-0.00061873
-4.40000000,-3.29644950,-0.00061819
-4.40000000,-3.19637590,-0.00061738
-4.40000000,-3.09624270,-0.00061652
-4.40000000,-2.99616280,-0.00061542
-4.40000000,-2.89661830,-0.00061398
-4.40000000,-2.79655130,-0.00061197
-4.40000000,-2.69648270,-0.00060950
-4.40000000,-2.59636390,-0.00060621
-4.40000000,-2.49630440,-0.00060200
-4.40000000,-2.39624780,-0.00059663
-4.40000000,-2.29673840,-0.00059009
-4.40000000,-2.19670890,-0.00058222
-4.40000000,-2.09674540,-0.00057291
-4.40000000,-1.99672890,-0.00056214
-4.40000000,-1.89672380,-0.00054984
-4.40000000,-1.79673070,-0.00053595
-4.40000000,-1.69726130,-0.00052054
-4.40000000,-1.59726950,-0.00050344
-4.40000000,-1.49725530,-0.00048475
-4.40000000,-1.39729200,-0.00046437
-4.40000000,-1.29734530,-0.00044229
-4.40000000,-1.19740650,-0.00041859
-4.40000000,-1.09799040,-0.00039333
-4.40000000,-0.99799124,-0.00036624
-4.40000000,-0.89808144,-0.00033741
-4.40000000,-0.79818362,-0.00030690
-4.40000000,-0.69830692,-0.00027476
-4.40000000,-0.59841609,-0.00024082
-4.40000000,-0.49900426,-0.00020521
-4.40000000,-0.39913954,-0.00016778
-4.40000000,-0.29928641,-0.00012855
-4.40000000,-0.19944601,-0.00008752
-4.40000000,-0.09962071,-0.00004462
-4.40000000,-0.00016051,-0.00000007
-4.30000000,-4.99639360,-0.00059320
-4.30000000,-4.89631510,-0.00059296
-4.30000000,-4.79623140,-0.00059267
-4.30000000,-4.69662750,-0.00059242
-4.30000000,-4.59653580,-0.00059215
-4.30000000,-4.49646100,-0.00059196
-4.30000000,-4.39638380,-0.00059171
-4.30000000,-4.29628810,-0.00059143
-4.30000000,-4.19633790,-0.00059119
-4.30000000,-4.09678040,-0.00059080
-4.30000000,-3.99670840,-0.00059056
-4.30000000,-3.89664920,-0.00059018
-4.30000000,-3.79656010,-0.00058986
-4.30000000,-3.69642570,-0.00058951
-4.30000000,-3.59634970,-0.00058906
-4.30000000,-3.49678960,-0.00058875
-4.30000000,-3.39671620,-0.00058821
-4.30000000,-3.29662850,-0.00058765
-4.30000000,-3.19656390,-0.00058703
-4.30000000,-3.09641650,-0.00058630
-4.30000000,-2.99633920,-0.00058532
-4.30000000,-2.89678820,-0.00058423
-4.30000000,-2.79671600,-0.00058279
-4.30000000,-2.69665130,-0.00058076
-4.30000000,-2.59652470,-0.00057815
-4.30000000,-2.49646000,-0.00057471
-4.30000000,-2.39640600,-0.00057031
-4.30000000,-2.29687720,-0.00056475
-4.30000000,-2.19684500,-0.00055784
-4.30000000,-2.09687640,-0.00054974
-4.30000000,-1.99685860,-0.00054011
-4.30000000,-1.89684050,-0.00052897
-4.30000000,-1.79685000,-0.00051622
-4.30000000,-1.69737020,-0.00050200
-4.30000000,-1.59737200,-0.00048611
-4.30000000,-1.49734870,-0.00046855
-4.30000000,-1.39737370,-0.00044937
-4.30000000,-1.29742960,-0.00042847
-4.30000000,-1.19748300,-0.00040580
-4.30000000,-1.09805010,-0.00038168
-4.30000000,-0.99805169,-0.00035575
-4.30000000,-0.89813326,-0.00032807
-4.30000000,-0.79822759,-0.00029869
-4.30000000,-0.69834604,-0.00026756
-4.30000000,-0.59845038,-0.00023469
-4.30000000,-0.49903017,-0.00020020
-4.30000000,-0.39916375,-0.00016380
-4.30000000,-0.29930133,-0.00012557
-4.30000000,-0.19946080,-0.00008558
-4.30000000,-0.09962701,-0.00004368
-4.30000000,-0.00015972,-0.00000009
-4.20000000,-4.99656870,-0.00056276
-4.20000000,-4.89649410,-0.00056249
-4.20000000,-4.79641160,-0.00056225
-4.20000000,-4.69680000,-0.00056203
-4.20000000,-4.59671730,-0.00056178
-4.20000000,-4.49663870,-0.00056161
-4.20000000,-4.39657050,-0.00056130
-4.20000000,-4.29647350,-0.00056107
-4.20000000,-4.19651950,-0.00056080
-4.20000000,-4.09695680,-0.00056050
-4.20000000,-3.99688220,-0.00056026
-4.20000000,-3.89682170,-0.00055989
-4.20000000,-3.79673260,-0.00055962
-4.20000000,-3.69659820,-0.00055932
-4.20000000,-3.59653000,-0.00055897
-4.20000000,-3.49696600,-0.00055861
-4.20000000,-3.39689390,-0.00055818
-4.20000000,-3.29680220,-0.00055773
-4.20000000,-3.19673510,-0.00055720
-4.20000000,-3.09659420,-0.00055660
-4.20000000,-2.99651430,-0.00055583
-4.20000000,-2.89696450,-0.00055498
-4.20000000,-2.79688720,-0.00055375
-4.20000000,-2.69681860,-0.00055230
-4.20000000,-2.59669330,-0.00055010
-4.20000000,-2.49662470,-0.00054742
-4.20000000,-2.39655910,-0.00054388
-4.20000000,-2.29703410,-0.00053927
-4.20000000,-2.19699160,-0.00053343
-4.20000000,-2.09701650,-0.00052634
-4.20000000,-1.99698960,-0.00051775
-4.20000000,-1.89696500,-0.00050774
-4.20000000,-1.79696150,-0.00049626
-4.20000000,-1.69747910,-0.00048320
-4.20000000,-1.59747960,-0.00046848
-4.20000000,-1.49745110,-0.00045210
-4.20000000,-1.39746580,-0.00043410
-4.20000000,-1.29751390,-0.00041438
-4.20000000,-1.19756080,-0.00039295
-4.20000000,-1.09812530,-0.00036996
-4.20000000,-0.99811804,-0.00034519
-4.20000000,-0.89818769,-0.00031861
-4.20000000,-0.79828215,-0.00029029
-4.20000000,-0.69838831,-0.00026029
-4.20000000,-0.59848833,-0.00022845
-4.20000000,-0.49906445,-0.00019512
-4.20000000,-0.39918730,-0.00015979
-4.20000000,-0.29932122,-0.00012257
-4.20000000,-0.19947297,-0.00008357
-4.20000000,-0.09963348,-0.00004269
-4.20000000,-0.00015501,-0.00000009
-4.10000000,-4.99674380,-0.00053298
-4.10000000,-4.89667170,-0.00053271
-4.10000000,-4.79658020,-0.00053253
-4.10000000,-4.69697370,-0.00053227
-4.10000000,-4.59688980,-0.00053202
-4.10000000,-4.49681120,-0.00053183
-4.10000000,-4.39674170,-0.00053165
-4.10000000,-4.29663950,-0.00053135
-4.10000000,-4.19669330,-0.00053113
-4.10000000,-4.09713060,-0.00053088
-4.10000000,-3.99705720,-0.00053063
-4.10000000,-3.89699800,-0.00053037
-4.10000000,-3.79690500,-0.00053005
-4.10000000,-3.69677190,-0.00052982
-4.10000000,-3.59670510,-0.00052944
-4.10000000,-3.49713850,-0.00052916
-4.10000000,-3.39706630,-0.00052877
-4.10000000,-3.29697860,-0.00052833
-4.10000000,-3.19690630,-0.00052792
-4.10000000,-3.09676410,-0.00052740
-4.10000000,-2.99668670,-0.00052678
-4.10000000,-2.89713050,-0.00052607
-4.10000000,-2.79706230,-0.00052516
-4.10000000,-2.69698330,-0.00052391
-4.10000000,-2.59685150,-0.00052229
-4.10000000,-2.49678170,-0.00052017
-4.10000000,-2.39671080,-0.00051737
-4.10000000,-2.29718320,-0.00051371
-4.10000000,-2.19713420,-0.00050885
-4.10000000,-2.09715130,-0.00050273
-4.10000000,-1.99711930,-0.00049531
-4.10000000,-1.89709080,-0.00048642
-4.10000000,-1.79707950,-0.00047610
-4.10000000,-1.69759460,-0.00046422
-4.10000000,-1.59758210,-0.00045068
-4.10000000,-1.49754450,-0.00043548
-4.10000000,-1.39755400,-0.00041867
-4.10000000,-1.29759430,-0.00040011
-4.10000000,-1.19763730,-0.00037984
-4.10000000,-1.09819270,-0.00035806
-4.10000000,-0.99818242,-0.00033432
-4.10000000,-0.89824854,-0.00030899
-4.10000000,-0.79832992,-0.00028182
-4.10000000,-0.69843136,-0.00025287
-4.10000000,-0.59852444,-0.00022222
-4.10000000,-0.49909350,-0.00018987
-4.10000000,-0.39921242,-0.00015555
-4.10000000,-0.29933993,-0.00011950
-4.10000000,-0.19948435,-0.00008155
-4.10000000,-0.09964173,-0.00004169
-4.10000000,-0.00016045,-0.00000009
-4.00000000,-4.99691890,-0.00050381
-4.00000000,-4.89683900,-0.00050351
-4.00000000,-4.79675660,-0.00050337
-4.00000000,-4.69714620,-0.00050314
-4.00000000,-4.59705970,-0.00050298
-4.00000000,-4.49698240,-0.00050280
-4.00000000,-4.39691030,-0.00050253
-4.00000000,-4.29681070,-0.00050236
-4.00000000,-4.19686060,-0.00050212
-4.00000000,-4.09729920,-0.00050193
-4.00000000,-3.99722580,-0.00050161
-4.00000000,-3.89716660,-0.00050138
-4.00000000,-3.79707880,-0.00050116
-4.00000000,-3.69694050,-0.00050091
-4.00000000,-3.59686850,-0.00050055
-4.00000000,-3.49730970,-0.00050027
-4.00000000,-3.39723230,-0.00050002
-4.00000000,-3.29714330,-0.00049960
-4.00000000,-3.19707230,-0.00049924
-4.00000000,-3.09693270,-0.00049874
-4.00000000,-2.99684880,-0.00049829
-4.00000000,-2.89730040,-0.00049770
-4.00000000,-2.79722180,-0.00049698
-4.00000000,-2.69714800,-0.00049603
-4.00000000,-2.59701360,-0.00049481
-4.00000000,-2.49694120,-0.00049322
-4.00000000,-2.39686640,-0.00049102
-4.00000000,-2.29732980,-0.00048798
-4.00000000,-2.19727950,-0.00048401
-4.00000000,-2.09729530,-0.00047893
-4.00000000,-1.99725810,-0.00047261
-4.00000000,-1.89721790,-0.00046488
-4.00000000,-1.79720530,-0.00045569
-4.00000000,-1.69770220,-0.00044495
-4.00000000,-1.59769100,-0.00043262
-4.00000000,-1.49764830,-0.00041866
-4.00000000,-1.39764990,-0.00040304
-4.00000000,-1.29768640,-0.00038567
-4.00000000,-1.19771380,-0.00036661
-4.00000000,-1.09826920,-0.00034595
-4.00000000,-0.99824445,-0.00032349
-4.00000000,-0.89830193,-0.00029919
-4.00000000,-0.79837938,-0.00027319
-4.00000000,-0.69847703,-0.00024542
-4.00000000,-0.59856514,-0.00021576
