Vgs,Vds,Ids
-1.00000000,-0.00018218,0.00000000
-1.00000000,0.09992967,0.00000006
-1.00000000,0.20000694,0.00000000
-1.00000000,0.30009103,0.00000000
-1.00000000,0.40017490,-0.00000001
-1.00000000,0.49973823,0.00000003
-1.00000000,0.59988435,0.00000005
-1.00000000,0.69997678,-0.00000002
-1.00000000,0.80004325,0.00000000
-1.00000000,0.90012470,0.00000001
-1.00000000,1.00021100,0.00000000
-1.00000000,1.09985020,-0.00000001
-1.00000000,1.19993970,0.00000002
-1.00000000,1.30001630,-0.00000002
-1.00000000,1.40008900,0.00000005
-1.00000000,1.50017960,0.00000000
-1.00000000,1.60030530,0.00000000
-1.00000000,1.69987600,-0.00000005
-1.00000000,1.79996420,-0.00000002
-1.00000000,1.90003150,0.00000000
-1.00000000,2.00012100,-0.00000005
-1.00000000,2.10019990,-0.00000003
-1.00000000,2.20022300,0.00000002
-1.00000000,2.29979400,-0.00000001
-1.00000000,2.39985220,0.00000003
-1.00000000,2.49995200,-0.00000003
-1.00000000,2.60002850,0.00000000
-1.00000000,2.70017630,-0.00000003
-1.00000000,2.80025930,0.00000003
-1.00000000,2.89981700,0.00000003
-1.00000000,2.99989620,0.00000002
-1.00000000,3.09998310,0.00000002
-1.00000000,3.20012950,0.00000003
-1.00000000,3.30021140,-0.00000003
-1.00000000,3.39978200,0.00000002
-1.00000000,3.49986370,-0.00000002
-1.00000000,3.59994810,0.00000002
-1.00000000,3.70002330,0.00000003
-1.00000000,3.80016460,0.00000005
-1.00000000,3.90025950,0.00000000
-1.00000000,3.99980690,0.00000004
-1.00000000,4.09988080,0.00000001
-1.00000000,4.19996650,-0.00000004
-1.00000000,4.29992250,0.00000001
-1.00000000,4.40002590,0.00000003
-1.00000000,4.50010250,-0.00000002
-1.00000000,4.59966280,0.00000001
-1.00000000,4.69975380,-0.00000002
-1.00000000,4.79988610,-0.00000007
-1.00000000,4.89997690,0.00000002
-1.00000000,5.00006120,0.00000000
-0.90000000,-0.00017377,0.00000000
-0.90000000,0.09993270,0.00000000
-0.90000000,0.20001244,-0.00000002
-0.90000000,0.30009181,0.00000002
-0.90000000,0.40018262,0.00000003
-0.90000000,0.49974595,-0.00000002
-0.90000000,0.59988422,0.00000002
-0.90000000,0.69997717,0.00000007
-0.90000000,0.80004770,-0.00000000
-0.90000000,0.90012758,-0.00000001
-0.90000000,1.00021530,0.00000004
-0.90000000,1.09985560,-0.00000000
-0.90000000,1.19994120,-0.00000002
-0.90000000,1.30001890,0.00000008
-0.90000000,1.40008900,-0.00000005
-0.90000000,1.50017960,-0.00000000
-0.90000000,1.60031050,-0.00000007
-0.90000000,1.69987730,0.00000003
-0.90000000,1.79996290,0.00000000
-0.90000000,1.90003670,0.00000003
-0.90000000,2.00012100,0.00000007
-0.90000000,2.10019350,0.00000000
-0.90000000,2.20021910,-0.00000002
-0.90000000,2.29979790,-0.00000002
-0.90000000,2.39985220,0.00000002
-0.90000000,2.49994030,-0.00000001
-0.90000000,2.60002720,0.00000002
-0.90000000,2.70016980,-0.00000003
-0.90000000,2.80025670,0.00000002
-0.90000000,2.89981440,0.00000002
-0.90000000,2.99989240,0.00000003
-0.90000000,3.09998310,0.00000002
-0.90000000,3.20013340,0.00000000
-0.90000000,3.30020750,0.00000001
-0.90000000,3.39978070,0.00000003
-0.90000000,3.49986240,-0.00000003
-0.90000000,3.59994680,0.00000002
-0.90000000,3.70002330,0.00000009
-0.90000000,3.80016720,-0.00000002
-0.90000000,3.90025430,-0.00000002
-0.90000000,3.99980430,0.00000002
-0.90000000,4.09988600,-0.00000004
-0.90000000,4.19997040,-0.00000000
-0.90000000,4.29992380,-0.00000002
-0.90000000,4.40002470,0.00000000
-0.90000000,4.50010380,0.00000004
-0.90000000,4.59966540,-0.00000004
-0.90000000,4.69975640,-0.00000003
-0.90000000,4.79988350,0.00000000
-0.90000000,4.89997040,0.00000002
-0.90000000,5.00005990,0.00000010
-0.80000000,-0.00017526,0.00000000
-0.80000000,0.09993408,0.00000003
-0.80000000,0.20001087,0.00000000
-0.80000000,0.30009548,0.00000005
-0.80000000,0.40018118,-0.00000003
-0.80000000,0.49974294,0.00000007
-0.80000000,0.59988815,0.00000007
-0.80000000,0.69997730,-0.00000001
-0.80000000,0.80004704,0.00000000
-0.80000000,0.90012771,0.00000003
-0.80000000,1.00021400,0.00000000
-0.80000000,1.09985620,-0.00000001
-0.80000000,1.19993900,0.00000002
-0.80000000,1.30001500,-0.00000004
-0.80000000,1.40009030,-0.00000002
-0.80000000,1.50018090,0.00000000
-0.80000000,1.60030920,0.00000000
-0.80000000,1.69988250,0.00000001
-0.80000000,1.79996550,0.00000001
-0.80000000,1.90003410,0.00000002
-0.80000000,2.00012230,0.00000002
-0.80000000,2.10019470,0.00000004
-0.80000000,2.20022300,-0.00000002
-0.80000000,2.29979400,0.00000003
-0.80000000,2.39985350,-0.00000002
-0.80000000,2.49994810,-0.00000001
-0.80000000,2.60002980,0.00000004
-0.80000000,2.70018150,0.00000000
-0.80000000,2.80025930,0.00000005
-0.80000000,2.89982090,0.00000002
-0.80000000,2.99989750,0.00000005
-0.80000000,3.09998570,-0.00000001
-0.80000000,3.20013080,-0.00000003
-0.80000000,3.30020880,-0.00000002
-0.80000000,3.39978070,-0.00000002
-0.80000000,3.49986630,-0.00000002
-0.80000000,3.59995330,0.00000001
-0.80000000,3.70003110,0.00000004
-0.80000000,3.80016590,-0.00000002
-0.80000000,3.90025950,0.00000001
-0.80000000,3.99980820,-0.00000003
-0.80000000,4.09988470,-0.00000002
-0.80000000,4.19997300,0.00000001
-0.80000000,4.29992380,0.00000003
-0.80000000,4.40002590,-0.00000000
-0.80000000,4.50010770,0.00000002
-0.80000000,4.59967190,0.00000002
-0.80000000,4.69975640,0.00000004
-0.80000000,4.79988610,0.00000008
-0.80000000,4.89997560,0.00000002
-0.80000000,5.00005990,0.00000005
-0.70000000,-0.00017488,0.00000002
-0.70000000,0.09993347,0.00000009
-0.70000000,0.20000825,-0.00000002
-0.70000000,0.30009221,0.00000003
-0.70000000,0.40017961,0.00000001
-0.70000000,0.49974425,-0.00000004
-0.70000000,0.59988514,-0.00000006
-0.70000000,0.69997652,-0.00000000
-0.70000000,0.80004796,-0.00000001
-0.70000000,0.90012942,-0.00000004
-0.70000000,1.00021270,-0.00000001
-0.70000000,1.09985500,0.00000001
-0.70000000,1.19994030,0.00000000
-0.70000000,1.30001890,0.00000007
-0.70000000,1.40009030,-0.00000001
-0.70000000,1.50018220,-0.00000004
-0.70000000,1.60031180,-0.00000002
-0.70000000,1.69988510,-0.00000003
-0.70000000,1.79996160,0.00000001
-0.70000000,1.90003800,0.00000000
-0.70000000,2.00012620,0.00000002
-0.70000000,2.10020120,0.00000011
-0.70000000,2.20022040,0.00000003
-0.70000000,2.29979530,0.00000003
-0.70000000,2.39985090,-0.00000005
-0.70000000,2.49994420,0.00000003
-0.70000000,2.60003110,0.00000003
-0.70000000,2.70017370,0.00000000
-0.70000000,2.80025930,0.00000000
-0.70000000,2.89981440,0.00000006
-0.70000000,2.99989490,0.00000005
-0.70000000,3.09998180,-0.00000001
-0.70000000,3.20013340,0.00000002
-0.70000000,3.30020880,0.00000003
-0.70000000,3.39978070,-0.00000001
-0.70000000,3.49986890,0.00000000
-0.70000000,3.59994940,-0.00000001
-0.70000000,3.70002720,0.00000005
-0.70000000,3.80016720,-0.00000001
-0.70000000,3.90025950,0.00000005
-0.70000000,3.99980560,-0.00000004
-0.70000000,4.09987950,-0.00000000
-0.70000000,4.19996910,0.00000004
-0.70000000,4.29992120,0.00000000
-0.70000000,4.40002590,0.00000002
-0.70000000,4.50009990,0.00000005
-0.70000000,4.59966540,0.00000003
-0.70000000,4.69975640,0.00000002
-0.70000000,4.79988740,-0.00000000
-0.70000000,4.89997040,0.00000005
-0.70000000,5.00005870,0.00000001
-0.60000000,-0.00017127,0.00000003
-0.60000000,0.09993358,0.00000001
-0.60000000,0.20001362,0.00000002
-0.60000000,0.30009273,0.00000000
-0.60000000,0.40017974,0.00000002
-0.60000000,0.49974242,-0.00000001
-0.60000000,0.59988645,-0.00000000
-0.60000000,0.69997835,0.00000004
-0.60000000,0.80004731,0.00000002
-0.60000000,0.90012732,0.00000000
-0.60000000,1.00021380,0.00000000
-0.60000000,1.09985730,0.00000000
-0.60000000,1.19993770,0.00000000
-0.60000000,1.30001630,-0.00000003
-0.60000000,1.40009160,0.00000000
-0.60000000,1.50018350,0.00000003
-0.60000000,1.60030660,0.00000005
-0.60000000,1.69987600,0.00000009
-0.60000000,1.79996420,0.00000000
-0.60000000,1.90003930,-0.00000001
-0.60000000,2.00012360,-0.00000003
-0.60000000,2.10019860,0.00000004
-0.60000000,2.20022170,0.00000004
-0.60000000,2.29979790,0.00000004
-0.60000000,2.39985220,0.00000000
-0.60000000,2.49994290,0.00000001
-0.60000000,2.60003110,0.00000004
-0.60000000,2.70017110,-0.00000000
-0.60000000,2.80025670,-0.00000000
-0.60000000,2.89981440,-0.00000003
-0.60000000,2.99989370,0.00000002
-0.60000000,3.09998440,-0.00000001
-0.60000000,3.20012950,-0.00000006
-0.60000000,3.30020880,0.00000002
-0.60000000,3.39977940,-0.00000001
-0.60000000,3.49985980,-0.00000001
-0.60000000,3.59994810,0.00000001
-0.60000000,3.70002200,0.00000003
-0.60000000,3.80015940,-0.00000006
-0.60000000,3.90024920,0.00000000
-0.60000000,3.99980300,0.00000004
-0.60000000,4.09988340,0.00000004
-0.60000000,4.19996650,0.00000003
-0.60000000,4.29991860,0.00000008
-0.60000000,4.40002470,0.00000001
-0.60000000,4.50009730,0.00000000
-0.60000000,4.59966410,-0.00000000
-0.60000000,4.69975380,0.00000002
-0.60000000,4.79988350,0.00000000
-0.60000000,4.89997560,-0.00000001
-0.60000000,5.00005870,0.00000001
-0.50000000,-0.00017401,0.00000000
-0.50000000,0.09993333,0.00000000
-0.50000000,0.20000550,-0.00000003
-0.50000000,0.30009286,0.00000000
-0.50000000,0.40017804,0.00000004
-0.50000000,0.49974491,0.00000006
-0.50000000,0.59988527,-0.00000002
-0.50000000,0.69997443,0.00000003
-0.50000000,0.80004312,0.00000000
-0.50000000,0.90012562,0.00000001
-0.50000000,1.00021020,-0.00000002
-0.50000000,1.09985570,-0.00000000
-0.50000000,1.19993590,0.00000006
-0.50000000,1.30001890,0.00000004
-0.50000000,1.40008900,-0.00000002
-0.50000000,1.50017310,0.00000008
-0.50000000,1.60031050,0.00000004
-0.50000000,1.69988120,0.00000011
-0.50000000,1.79996290,-0.00000001
-0.50000000,1.90003930,0.00000005
-0.50000000,2.00012100,-0.00000004
-0.50000000,2.10019990,0.00000002
-0.50000000,2.20022170,0.00000000
-0.50000000,2.29979660,0.00000001
-0.50000000,2.39985350,0.00000004
-0.50000000,2.49994290,0.00000004
-0.50000000,2.60002980,0.00000003
-0.50000000,2.70017240,-0.00000000
-0.50000000,2.80025540,0.00000004
-0.50000000,2.89982090,0.00000001
-0.50000000,2.99989750,0.00000005
-0.50000000,3.09998440,0.00000003
-0.50000000,3.20013080,-0.00000002
-0.50000000,3.30021010,0.00000002
-0.50000000,3.39978200,0.00000006
-0.50000000,3.49986890,0.00000002
-0.50000000,3.59995200,0.00000003
-0.50000000,3.70002330,0.00000008
-0.50000000,3.80016460,-0.00000001
-0.50000000,3.90025950,0.00000007
-0.50000000,3.99980300,0.00000004
-0.50000000,4.09988210,0.00000004
-0.50000000,4.19996910,0.00000002
-0.50000000,4.29992380,0.00000003
-0.50000000,4.40002720,0.00000006
-0.50000000,4.50010380,0.00000003
-0.50000000,4.59966410,0.00000001
-0.50000000,4.69975640,0.00000008
-0.50000000,4.79988610,-0.00000000
-0.50000000,4.89997690,0.00000003
-0.50000000,5.00005990,0.00000002
-0.40000000,-0.00017372,-0.00000001
-0.40000000,0.09993494,0.00000004
-0.40000000,0.20000969,0.00000007
-0.40000000,0.30009247,0.00000003
-0.40000000,0.40017935,-0.00000000
-0.40000000,0.49974255,0.00000002
-0.40000000,0.59988553,0.00000006
-0.40000000,0.69997809,0.00000000
-0.40000000,0.80004560,-0.00000000
-0.40000000,0.90012837,0.00000001
-0.40000000,1.00021360,0.00000000
-0.40000000,1.09985560,-0.00000000
-0.40000000,1.19994010,0.00000004
-0.40000000,1.30001380,0.00000000
-0.40000000,1.40009160,0.00000002
-0.40000000,1.50018090,0.00000004
-0.40000000,1.60030660,0.00000003
-0.40000000,1.69987990,0.00000004
-0.40000000,1.79996160,0.00000007
-0.40000000,1.90003410,0.00000009
-0.40000000,2.00012360,0.00000002
-0.40000000,2.10019990,0.00000006
-0.40000000,2.20021910,0.00000005
-0.40000000,2.29979270,0.00000004
-0.40000000,2.39985220,0.00000005
-0.40000000,2.49994420,0.00000007
-0.40000000,2.60002460,0.00000003
-0.40000000,2.70017240,0.00000001
-0.40000000,2.80025540,0.00000002
-0.40000000,2.89981570,0.00000004
-0.40000000,2.99989490,0.00000004
-0.40000000,3.09998440,0.00000000
-0.40000000,3.20013470,0.00000002
-0.40000000,3.30021140,0.00000002
-0.40000000,3.39977690,0.00000005
-0.40000000,3.49985980,0.00000005
-0.40000000,3.59994810,0.00000003
-0.40000000,3.70002590,0.00000007
-0.40000000,3.80016720,0.00000003
-0.40000000,3.90025820,0.00000005
-0.40000000,3.99980560,0.00000010
-0.40000000,4.09988340,0.00000005
-0.40000000,4.19996650,0.00000007
-0.40000000,4.29992380,0.00000002
-0.40000000,4.40002340,0.00000008
-0.40000000,4.50010250,0.00000001
-0.40000000,4.59966670,0.00000004
-0.40000000,4.69975120,0.00000008
-0.40000000,4.79988740,0.00000004
-0.40000000,4.89997560,0.00000006
-0.40000000,5.00005870,0.00000003
-0.30000000,-0.00017617,-0.00000001
-0.30000000,0.09993436,0.00000000
-0.30000000,0.20000917,0.00000008
-0.30000000,0.30009168,0.00000004
-0.30000000,0.40017739,0.00000003
-0.30000000,0.49974294,0.00000011
-0.30000000,0.59988396,0.00000004
-0.30000000,0.69997652,-0.00000002
-0.30000000,0.80004888,0.00000003
-0.30000000,0.90012536,0.00000005
-0.30000000,1.00020910,0.00000003
-0.30000000,1.09985560,0.00000001
-0.30000000,1.19993780,0.00000004
-0.30000000,1.30001890,0.00000005
-0.30000000,1.40009030,0.00000009
-0.30000000,1.50018090,0.00000002
-0.30000000,1.60030920,0.00000000
-0.30000000,1.69987340,0.00000005
-0.30000000,1.79996420,0.00000006
-0.30000000,1.90003410,0.00000010
-0.30000000,2.00011970,0.00000001
-0.30000000,2.10019860,0.00000003
-0.30000000,2.20022300,0.00000004
-0.30000000,2.29979140,0.00000007
-0.30000000,2.39985350,0.00000007
-0.30000000,2.49994290,0.00000000
-0.30000000,2.60002590,0.00000009
-0.30000000,2.70017240,0.00000006
-0.30000000,2.80025800,0.00000004
-0.30000000,2.89981440,0.00000007
-0.30000000,2.99989750,0.00000006
-0.30000000,3.09998050,0.00000004
-0.30000000,3.20013600,0.00000009
-0.30000000,3.30020750,0.00000002
-0.30000000,3.39977690,0.00000007
-0.30000000,3.49986370,0.00000008
-0.30000000,3.59994810,0.00000002
-0.30000000,3.70002460,0.00000006
-0.30000000,3.80015940,0.00000005
-0.30000000,3.90025820,0.00000001
-0.30000000,3.99980170,0.00000007
-0.30000000,4.09988080,0.00000008
-0.30000000,4.19997300,0.00000012
-0.30000000,4.29991860,0.00000005
-0.30000000,4.40002340,0.00000007
-0.30000000,4.50009860,0.00000004
-0.30000000,4.59966540,0.00000005
-0.30000000,4.69975640,0.00000008
-0.30000000,4.79988480,0.00000008
-0.30000000,4.89997300,0.00000009
-0.30000000,5.00005610,0.00000011
-0.20000000,-0.00017595,-0.00000003
-0.20000000,0.09993119,0.00000006
-0.20000000,0.20001205,0.00000004
-0.20000000,0.30008906,0.00000005
-0.20000000,0.40018053,0.00000006
-0.20000000,0.49974321,-0.00000001
-0.20000000,0.59988527,0.00000010
-0.20000000,0.69997757,0.00000006
-0.20000000,0.80004560,0.00000007
-0.20000000,0.90012261,0.00000008
-0.20000000,1.00021270,0.00000008
-0.20000000,1.09985280,0.00000008
-0.20000000,1.19993730,0.00000003
-0.20000000,1.30001760,0.00000010
-0.20000000,1.40009160,0.00000003
-0.20000000,1.50018090,0.00000012
-0.20000000,1.60030530,0.00000007
-0.20000000,1.69987990,0.00000006
-0.20000000,1.79996160,0.00000006
-0.20000000,1.90003280,0.00000010
-0.20000000,2.00012620,0.00000007
-0.20000000,2.10020120,0.00000005
-0.20000000,2.20022300,0.00000004
-0.20000000,2.29979270,0.00000014
-0.20000000,2.39984960,0.00000006
-0.20000000,2.49993770,0.00000010
-0.20000000,2.60002460,0.00000007
-0.20000000,2.70017500,0.00000007
-0.20000000,2.80025410,0.00000014
-0.20000000,2.89982090,0.00000006
-0.20000000,2.99989750,0.00000006
-0.20000000,3.09998310,0.00000009
-0.20000000,3.20012950,0.00000006
-0.20000000,3.30021270,0.00000006
-0.20000000,3.39978200,0.00000010
-0.20000000,3.49985850,0.00000004
-0.20000000,3.59994550,0.00000009
-0.20000000,3.70002460,0.00000007
-0.20000000,3.80016200,0.00000009
-0.20000000,3.90025430,0.00000011
-0.20000000,3.99980300,0.00000010
-0.20000000,4.09988340,0.00000012
-0.20000000,4.19996910,0.00000006
-0.20000000,4.29991860,0.00000013
-0.20000000,4.40002470,0.00000006
-0.20000000,4.50009860,0.00000010
-0.20000000,4.59966540,0.00000008
-0.20000000,4.69974990,0.00000012
-0.20000000,4.79988350,0.00000014
-0.20000000,4.89997430,0.00000010
-0.20000000,5.00005740,0.00000012
-0.10000000,-0.00017545,-0.00000003
-0.10000000,0.09993108,0.00000011
-0.10000000,0.20000760,0.00000012
-0.10000000,0.30009234,0.00000011
-0.10000000,0.40017804,0.00000013
-0.10000000,0.49974268,0.00000015
-0.10000000,0.59988396,0.00000010
-0.10000000,0.69997508,0.00000011
-0.10000000,0.80004416,0.00000015
-0.10000000,0.90012549,0.00000013
-0.10000000,1.00020880,0.00000016
-0.10000000,1.09985190,0.00000019
-0.10000000,1.19993510,0.00000013
-0.10000000,1.30002280,0.00000009
-0.10000000,1.40008640,0.00000016
-0.10000000,1.50017570,0.00000013
-0.10000000,1.60030660,0.00000013
-0.10000000,1.69988120,0.00000019
-0.10000000,1.79996290,0.00000026
-0.10000000,1.90003020,0.00000011
-0.10000000,2.00011970,0.00000013
-0.10000000,2.10019600,0.00000017
-0.10000000,2.20022040,0.00000013
-0.10000000,2.29979790,0.00000014
-0.10000000,2.39984960,0.00000015
-0.10000000,2.49994290,0.00000019
-0.10000000,2.60002980,0.00000013
-0.10000000,2.70017110,0.00000017
-0.10000000,2.80025410,0.00000018
-0.10000000,2.89981830,0.00000018
-0.10000000,2.99989620,0.00000020
-0.10000000,3.09998050,0.00000020
-0.10000000,3.20013600,0.00000023
-0.10000000,3.30020750,0.00000024
-0.10000000,3.39978200,0.00000021
-0.10000000,3.49985980,0.00000023
-0.10000000,3.59994550,0.00000020
-0.10000000,3.70002590,0.00000023
-0.10000000,3.80016330,0.00000010
-0.10000000,3.90025300,0.00000020
-0.10000000,3.99980690,0.00000024
-0.10000000,4.09988080,0.00000021
-0.10000000,4.19996780,0.00000023
-0.10000000,4.29991990,0.00000017
-0.10000000,4.40002210,0.00000015
-0.10000000,4.50009600,0.00000024
-0.10000000,4.59966540,0.00000021
-0.10000000,4.69975380,0.00000020
-0.10000000,4.79988220,0.00000023
-0.10000000,4.89997430,0.00000027
-0.10000000,5.00005740,0.00000025
0.00000000,-0.00017410,0.00000004
0.00000000,0.09993532,0.00000050
0.00000000,0.20000773,0.00000057
0.00000000,0.30008946,0.00000059
0.00000000,0.40017464,0.00000057
0.00000000,0.49973653,0.00000060
0.00000000,0.59988357,0.00000066
0.00000000,0.69997142,0.00000067
0.00000000,0.80004351,0.00000069
0.00000000,0.90012313,0.00000063
0.00000000,1.00020870,0.00000072
0.00000000,1.09984980,0.00000069
0.00000000,1.19993370,0.00000071
0.00000000,1.30001380,0.00000072
0.00000000,1.40008640,0.00000075
0.00000000,1.50017700,0.00000074
0.00000000,1.60030010,0.00000073
0.00000000,1.69987470,0.00000075
0.00000000,1.79995900,0.00000071
0.00000000,1.90002630,0.00000071
0.00000000,2.00012100,0.00000075
0.00000000,2.10019350,0.00000079
0.00000000,2.20021780,0.00000074
0.00000000,2.29979270,0.00000080
0.00000000,2.39984960,0.00000075
0.00000000,2.49993770,0.00000073
0.00000000,2.60002590,0.00000076
0.00000000,2.70016980,0.00000083
0.00000000,2.80024760,0.00000083
0.00000000,2.89981050,0.00000079
0.00000000,2.99989240,0.00000078
0.00000000,3.09997790,0.00000081
0.00000000,3.20012560,0.00000083
0.00000000,3.30020360,0.00000084
0.00000000,3.39977300,0.00000082
0.00000000,3.49985850,0.00000085
0.00000000,3.59994160,0.00000081
0.00000000,3.70002200,0.00000086
0.00000000,3.80015940,0.00000086
0.00000000,3.90025180,0.00000088
0.00000000,3.99980170,0.00000087
0.00000000,4.09987690,0.00000089
0.00000000,4.19996130,0.00000087
0.00000000,4.29991600,0.00000088
0.00000000,4.40002340,0.00000088
0.00000000,4.50009600,0.00000087
0.00000000,4.59965890,0.00000085
0.00000000,4.69974340,0.00000096
0.00000000,4.79988350,0.00000093
0.00000000,4.89996270,0.00000088
0.00000000,5.00005350,0.00000095
0.10000000,-0.00017474,0.00000000
0.10000000,0.09991704,0.00000223
0.10000000,0.19999582,0.00000246
0.10000000,0.30007847,0.00000255
0.10000000,0.40016260,0.00000260
0.10000000,0.49972724,0.00000270
0.10000000,0.59986970,0.00000274
0.10000000,0.69996042,0.00000284
0.10000000,0.80003082,0.00000283
0.10000000,0.90010756,0.00000288
0.10000000,1.00019270,0.00000291
0.10000000,1.09983720,0.00000301
0.10000000,1.19992040,0.00000291
0.10000000,1.29999820,0.00000295
0.10000000,1.40006820,0.00000302
0.10000000,1.50015890,0.00000307
0.10000000,1.60028720,0.00000314
0.10000000,1.69985270,0.00000314
0.10000000,1.79994350,0.00000309
0.10000000,1.90001330,0.00000308
0.10000000,2.00010030,0.00000318
0.10000000,2.10017920,0.00000318
0.10000000,2.20020230,0.00000325
0.10000000,2.29977580,0.00000318
0.10000000,2.39983270,0.00000320
