Vgs,Vds,Ids
-1.00000000,-0.00016903,-0.00000002
-1.00000000,0.09993852,0.00000004
-1.00000000,0.20001336,-0.00000003
-1.00000000,0.30009639,-0.00000005
-1.00000000,0.40018236,0.00000004
-1.00000000,0.49974674,0.00000000
-1.00000000,0.59988919,0.00000001
-1.00000000,0.69997979,-0.00000001
-1.00000000,0.80005450,-0.00000005
-1.00000000,0.90013570,-0.00000010
-1.00000000,1.00021840,0.00000003
-1.00000000,1.09986170,-0.00000002
-1.00000000,1.19994410,0.00000004
-1.00000000,1.30001890,-0.00000000
-1.00000000,1.40009160,0.00000001
-1.00000000,1.50018610,-0.00000001
-1.00000000,1.60031180,-0.00000000
-1.00000000,1.69988120,-0.00000001
-1.00000000,1.79996680,-0.00000001
-1.00000000,1.90004320,0.00000002
-1.00000000,2.00012360,-0.00000002
-1.00000000,2.10020510,-0.00000001
-1.00000000,2.20022820,-0.00000001
-1.00000000,2.29979790,-0.00000001
-1.00000000,2.39985870,-0.00000001
-1.00000000,2.49994810,0.00000004
-1.00000000,2.60003240,-0.00000007
-1.00000000,2.70017370,0.00000000
-1.00000000,2.80026190,0.00000008
-1.00000000,2.89982090,0.00000007
-1.00000000,2.99989880,-0.00000009
-1.00000000,3.09998570,0.00000006
-1.00000000,3.20013600,-0.00000003
-1.00000000,3.30021790,-0.00000003
-1.00000000,3.39978460,0.00000001
-1.00000000,3.49986760,0.00000001
-1.00000000,3.59995330,0.00000000
-1.00000000,3.70003110,0.00000002
-1.00000000,3.80017370,0.00000001
-1.00000000,3.90026730,-0.00000004
-1.00000000,3.99981330,0.00000002
-1.00000000,4.09988860,-0.00000001
-1.00000000,4.19996780,0.00000002
-1.00000000,4.29992640,-0.00000001
-1.00000000,4.40003240,-0.00000003
-1.00000000,4.50010510,0.00000007
-1.00000000,4.59967320,-0.00000001
-1.00000000,4.69976290,0.00000003
-1.00000000,4.79988870,-0.00000001
-1.00000000,4.89998080,0.00000002
-1.00000000,5.00006640,0.00000005
-0.90000000,-0.00016755,0.00000003
-0.90000000,0.09993834,0.00000001
-0.90000000,0.20001532,-0.00000001
-0.90000000,0.30009744,0.00000004
-0.90000000,0.40018485,0.00000001
-0.90000000,0.49974818,-0.00000000
-0.90000000,0.59989050,-0.00000003
-0.90000000,0.69998123,0.00000006
-0.90000000,0.80005110,-0.00000002
-0.90000000,0.90013583,0.00000001
-0.90000000,1.00021970,0.00000005
-0.90000000,1.09986160,0.00000003
-0.90000000,1.19994330,-0.00000000
-0.90000000,1.30002540,0.00000003
-0.90000000,1.40009290,0.00000002
-0.90000000,1.50018220,0.00000000
-0.90000000,1.60031440,-0.00000000
-0.90000000,1.69988770,-0.00000002
-0.90000000,1.79996550,-0.00000001
-0.90000000,1.90004190,-0.00000001
-0.90000000,2.00013010,0.00000004
-0.90000000,2.10020250,0.00000005
-0.90000000,2.20022430,-0.00000000
-0.90000000,2.29979530,0.00000001
-0.90000000,2.39986000,0.00000004
-0.90000000,2.49994940,0.00000000
-0.90000000,2.60003500,0.00000002
-0.90000000,2.70017890,0.00000000
-0.90000000,2.80026320,-0.00000010
-0.90000000,2.89981960,0.00000002
-0.90000000,2.99990660,-0.00000000
-0.90000000,3.09999470,-0.00000005
-0.90000000,3.20014120,0.00000003
-0.90000000,3.30021530,0.00000004
-0.90000000,3.39978070,0.00000001
-0.90000000,3.49987020,0.00000001
-0.90000000,3.59995200,-0.00000003
-0.90000000,3.70003370,0.00000002
-0.90000000,3.80017240,-0.00000001
-0.90000000,3.90026470,0.00000005
-0.90000000,3.99981460,0.00000003
-0.90000000,4.09988470,0.00000003
-0.90000000,4.19997170,0.00000005
-0.90000000,4.29992900,0.00000004
-0.90000000,4.40003240,0.00000000
-0.90000000,4.50010770,0.00000006
-0.90000000,4.59967060,-0.00000000
-0.90000000,4.69976550,-0.00000004
-0.90000000,4.79989000,0.00000001
-0.90000000,4.89998080,0.00000003
-0.90000000,5.00006510,-0.00000000
-0.80000000,-0.00016859,0.00000006
-0.80000000,0.09994130,-0.00000005
-0.80000000,0.20001558,0.00000000
-0.80000000,0.30010019,0.00000002
-0.80000000,0.40018576,-0.00000003
-0.80000000,0.49975067,-0.00000000
-0.80000000,0.59989168,-0.00000000
-0.80000000,0.69998018,-0.00000004
-0.80000000,0.80005241,0.00000000
-0.80000000,0.90013190,-0.00000001
-0.80000000,1.00021670,-0.00000002
-0.80000000,1.09986010,0.00000008
-0.80000000,1.19994630,-0.00000001
-0.80000000,1.30002410,0.00000000
-0.80000000,1.40009420,0.00000002
-0.80000000,1.50018870,-0.00000003
-0.80000000,1.60031570,-0.00000003
-0.80000000,1.69988510,0.00000009
-0.80000000,1.79997070,0.00000004
-0.80000000,1.90004060,-0.00000002
-0.80000000,2.00013140,-0.00000003
-0.80000000,2.10020510,-0.00000003
-0.80000000,2.20023080,0.00000000
-0.80000000,2.29979920,-0.00000001
-0.80000000,2.39986000,0.00000004
-0.80000000,2.49994810,0.00000000
-0.80000000,2.60003240,-0.00000003
-0.80000000,2.70018020,0.00000005
-0.80000000,2.80026840,-0.00000001
-0.80000000,2.89982220,-0.00000004
-0.80000000,2.99990140,-0.00000001
-0.80000000,3.09998700,0.00000004
-0.80000000,3.20013730,0.00000000
-0.80000000,3.30021530,0.00000004
-0.80000000,3.39978460,0.00000005
-0.80000000,3.49987280,0.00000004
-0.80000000,3.59995590,-0.00000003
-0.80000000,3.70003500,-0.00000002
-0.80000000,3.80017240,0.00000007
-0.80000000,3.90026860,-0.00000000
-0.80000000,3.99980950,-0.00000003
-0.80000000,4.09988470,0.00000000
-0.80000000,4.19996910,-0.00000000
-0.80000000,4.29992380,-0.00000002
-0.80000000,4.40003240,0.00000002
-0.80000000,4.50010900,-0.00000002
-0.80000000,4.59967580,0.00000002
-0.80000000,4.69976290,0.00000002
-0.80000000,4.79988740,0.00000003
-0.80000000,4.89997690,0.00000002
-0.80000000,5.00006640,0.00000002
-0.70000000,-0.00016806,0.00000000
-0.70000000,0.09993928,-0.00000001
-0.70000000,0.20001715,0.00000003
-0.70000000,0.30009535,0.00000000
-0.70000000,0.40018236,-0.00000002
-0.70000000,0.49974805,0.00000003
-0.70000000,0.59988998,0.00000004
-0.70000000,0.69997861,0.00000004
-0.70000000,0.80005385,0.00000001
-0.70000000,0.90013243,-0.00000002
-0.70000000,1.00021860,-0.00000002
-0.70000000,1.09985780,0.00000003
-0.70000000,1.19994180,0.00000004
-0.70000000,1.30002150,-0.00000003
-0.70000000,1.40009680,-0.00000003
-0.70000000,1.50018480,0.00000006
-0.70000000,1.60031440,0.00000000
-0.70000000,1.69988250,-0.00000001
-0.70000000,1.79997330,-0.00000000
-0.70000000,1.90004060,0.00000005
-0.70000000,2.00012880,-0.00000004
-0.70000000,2.10020510,-0.00000002
-0.70000000,2.20022560,-0.00000001
-0.70000000,2.29980180,0.00000005
-0.70000000,2.39986000,0.00000000
-0.70000000,2.49994680,0.00000008
-0.70000000,2.60003890,0.00000000
-0.70000000,2.70017500,0.00000000
-0.70000000,2.80026320,0.00000005
-0.70000000,2.89982350,-0.00000006
-0.70000000,2.99990400,-0.00000002
-0.70000000,3.09998830,-0.00000003
-0.70000000,3.20013860,0.00000001
-0.70000000,3.30022040,-0.00000001
-0.70000000,3.39978720,0.00000003
-0.70000000,3.49986500,0.00000001
-0.70000000,3.59995590,0.00000000
-0.70000000,3.70002980,-0.00000001
-0.70000000,3.80017110,0.00000002
-0.70000000,3.90026080,0.00000001
-0.70000000,3.99981080,0.00000003
-0.70000000,4.09988600,-0.00000000
-0.70000000,4.19997300,0.00000002
-0.70000000,4.29992510,-0.00000001
-0.70000000,4.40003110,0.00000002
-0.70000000,4.50010900,0.00000005
-0.70000000,4.59967320,0.00000006
-0.70000000,4.69975770,0.00000002
-0.70000000,4.79989390,0.00000002
-0.70000000,4.89998210,-0.00000000
-0.70000000,5.00006380,0.00000004
-0.60000000,-0.00016839,-0.00000003
-0.60000000,0.09993904,0.00000002
-0.60000000,0.20001741,-0.00000000
-0.60000000,0.30009705,0.00000000
-0.60000000,0.40018341,0.00000001
-0.60000000,0.49974700,-0.00000002
-0.60000000,0.59989077,0.00000006
-0.60000000,0.69998215,0.00000000
-0.60000000,0.80005332,0.00000002
-0.60000000,0.90013138,0.00000007
-0.60000000,1.00021950,0.00000003
-0.60000000,1.09986240,0.00000002
-0.60000000,1.19994280,-0.00000002
-0.60000000,1.30002280,0.00000001
-0.60000000,1.40009420,0.00000006
-0.60000000,1.50018610,-0.00000001
-0.60000000,1.60031570,0.00000005
-0.60000000,1.69988640,0.00000005
-0.60000000,1.79997460,0.00000000
-0.60000000,1.90004320,0.00000000
-0.60000000,2.00012620,0.00000003
-0.60000000,2.10020640,-0.00000002
-0.60000000,2.20022820,-0.00000002
-0.60000000,2.29980050,-0.00000001
-0.60000000,2.39986000,-0.00000001
-0.60000000,2.49994680,0.00000001
-0.60000000,2.60003370,0.00000008
-0.60000000,2.70017890,0.00000008
-0.60000000,2.80025930,0.00000003
-0.60000000,2.89981830,0.00000001
-0.60000000,2.99989880,0.00000003
-0.60000000,3.09998950,0.00000001
-0.60000000,3.20013990,0.00000000
-0.60000000,3.30021530,0.00000001
-0.60000000,3.39978720,-0.00000001
-0.60000000,3.49986760,0.00000003
-0.60000000,3.59995070,0.00000001
-0.60000000,3.70003110,0.00000003
-0.60000000,3.80017240,0.00000004
-0.60000000,3.90026730,-0.00000004
-0.60000000,3.99981590,0.00000003
-0.60000000,4.09988340,0.00000010
-0.60000000,4.19996650,0.00000001
-0.60000000,4.29992380,0.00000007
-0.60000000,4.40002850,0.00000006
-0.60000000,4.50010770,0.00000004
-0.60000000,4.59966930,-0.00000001
-0.60000000,4.69976290,-0.00000004
-0.60000000,4.79989130,-0.00000002
-0.60000000,4.89998860,0.00000003
-0.60000000,5.00006770,0.00000004
-0.50000000,-0.00016603,0.00000002
-0.50000000,0.09994086,0.00000001
-0.50000000,0.20001780,0.00000002
-0.50000000,0.30009731,0.00000003
-0.50000000,0.40018812,0.00000004
-0.50000000,0.49975158,0.00000001
-0.50000000,0.59989404,0.00000001
-0.50000000,0.69998123,0.00000000
-0.50000000,0.80005215,0.00000004
-0.50000000,0.90013386,0.00000000
-0.50000000,1.00021950,-0.00000002
-0.50000000,1.09986170,-0.00000004
-0.50000000,1.19994440,0.00000000
-0.50000000,1.30002410,0.00000004
-0.50000000,1.40009550,0.00000004
-0.50000000,1.50018740,-0.00000000
-0.50000000,1.60031050,-0.00000000
-0.50000000,1.69988120,0.00000002
-0.50000000,1.79996810,-0.00000002
-0.50000000,1.90004060,0.00000000
-0.50000000,2.00012360,0.00000010
-0.50000000,2.10020250,0.00000005
-0.50000000,2.20022560,0.00000007
-0.50000000,2.29979790,0.00000008
-0.50000000,2.39986000,-0.00000002
-0.50000000,2.49994680,0.00000003
-0.50000000,2.60003370,0.00000000
-0.50000000,2.70017630,0.00000005
-0.50000000,2.80026710,0.00000003
-0.50000000,2.89982220,0.00000005
-0.50000000,2.99990270,-0.00000002
-0.50000000,3.09998950,-0.00000005
-0.50000000,3.20013340,0.00000003
-0.50000000,3.30021010,0.00000005
-0.50000000,3.39978330,0.00000002
-0.50000000,3.49986760,0.00000002
-0.50000000,3.59995590,0.00000003
-0.50000000,3.70003110,0.00000005
-0.50000000,3.80016850,0.00000004
-0.50000000,3.90026860,0.00000004
-0.50000000,3.99981210,0.00000002
-0.50000000,4.09988600,0.00000005
-0.50000000,4.19997170,0.00000005
-0.50000000,4.29992510,-0.00000000
-0.50000000,4.40003760,0.00000007
-0.50000000,4.50011290,-0.00000000
-0.50000000,4.59967060,0.00000002
-0.50000000,4.69976160,0.00000005
-0.50000000,4.79989000,0.00000007
-0.50000000,4.89998860,0.00000002
-0.50000000,5.00006380,0.00000002
-0.40000000,-0.00016614,0.00000002
-0.40000000,0.09993950,0.00000004
-0.40000000,0.20001702,-0.00000001
-0.40000000,0.30010084,0.00000008
-0.40000000,0.40018393,0.00000000
-0.40000000,0.49974595,0.00000001
-0.40000000,0.59988959,0.00000000
-0.40000000,0.69998241,0.00000004
-0.40000000,0.80005110,0.00000007
-0.40000000,0.90013112,0.00000000
-0.40000000,1.00021810,0.00000003
-0.40000000,1.09986240,0.00000002
-0.40000000,1.19994500,-0.00000004
-0.40000000,1.30002280,0.00000003
-0.40000000,1.40009680,0.00000001
-0.40000000,1.50018350,0.00000005
-0.40000000,1.60031570,-0.00000001
-0.40000000,1.69988640,0.00000009
-0.40000000,1.79997200,0.00000000
-0.40000000,1.90004060,0.00000002
-0.40000000,2.00012620,-0.00000000
-0.40000000,2.10020380,0.00000008
-0.40000000,2.20022820,-0.00000004
-0.40000000,2.29980440,0.00000003
-0.40000000,2.39986380,0.00000005
-0.40000000,2.49995070,-0.00000000
-0.40000000,2.60003760,0.00000009
-0.40000000,2.70017890,0.00000004
-0.40000000,2.80026320,0.00000006
-0.40000000,2.89982220,0.00000006
-0.40000000,2.99990010,0.00000012
-0.40000000,3.09998700,0.00000005
-0.40000000,3.20013600,0.00000007
-0.40000000,3.30021270,0.00000003
-0.40000000,3.39978850,0.00000001
-0.40000000,3.49987150,0.00000005
-0.40000000,3.59995460,0.00000004
-0.40000000,3.70003500,0.00000001
-0.40000000,3.80017110,0.00000010
-0.40000000,3.90026340,0.00000001
-0.40000000,3.99981590,0.00000010
-0.40000000,4.09988860,0.00000004
-0.40000000,4.19997560,0.00000006
-0.40000000,4.29992770,0.00000008
-0.40000000,4.40003110,0.00000009
-0.40000000,4.50010900,0.00000004
-0.40000000,4.59967190,0.00000004
-0.40000000,4.69976030,0.00000008
-0.40000000,4.79989520,0.00000008
-0.40000000,4.89997690,0.00000004
-0.40000000,5.00006770,0.00000008
-0.30000000,-0.00017127,-0.00000002
-0.30000000,0.09994061,0.00000001
-0.30000000,0.20001623,-0.00000003
-0.30000000,0.30009770,0.00000004
-0.30000000,0.40018406,-0.00000004
-0.30000000,0.49974792,0.00000005
-0.30000000,0.59989050,0.00000001
-0.30000000,0.69998411,0.00000003
-0.30000000,0.80005346,0.00000005
-0.30000000,0.90013282,0.00000000
-0.30000000,1.00022110,0.00000006
-0.30000000,1.09986560,0.00000007
-0.30000000,1.19994580,-0.00000001
-0.30000000,1.30002410,0.00000007
-0.30000000,1.40009420,0.00000004
-0.30000000,1.50018610,0.00000006
-0.30000000,1.60031570,0.00000002
-0.30000000,1.69988770,0.00000002
-0.30000000,1.79996940,0.00000009
-0.30000000,1.90003930,0.00000007
-0.30000000,2.00012880,0.00000004
-0.30000000,2.10020380,0.00000005
-0.30000000,2.20022820,0.00000005
-0.30000000,2.29980180,0.00000009
-0.30000000,2.39986130,0.00000010
-0.30000000,2.49994810,0.00000008
-0.30000000,2.60003110,0.00000010
-0.30000000,2.70017890,0.00000011
-0.30000000,2.80026320,0.00000004
-0.30000000,2.89982090,0.00000009
-0.30000000,2.99990270,0.00000008
-0.30000000,3.09999210,0.00000016
-0.30000000,3.20013730,0.00000008
-0.30000000,3.30022040,0.00000003
-0.30000000,3.39978980,0.00000013
-0.30000000,3.49986760,0.00000005
-0.30000000,3.59995850,0.00000004
-0.30000000,3.70002720,0.00000006
-0.30000000,3.80016590,0.00000018
-0.30000000,3.90025820,0.00000012
-0.30000000,3.99980950,0.00000011
-0.30000000,4.09988470,0.00000011
-0.30000000,4.19996780,0.00000005
-0.30000000,4.29992250,0.00000012
-0.30000000,4.40003240,0.00000010
-0.30000000,4.50010640,0.00000010
-0.30000000,4.59966930,0.00000013
-0.30000000,4.69976160,0.00000015
-0.30000000,4.79988610,0.00000012
-0.30000000,4.89997690,0.00000012
-0.30000000,5.00006250,0.00000008
-0.20000000,-0.00017000,-0.00000005
-0.20000000,0.09993741,-0.00000000
-0.20000000,0.20001650,0.00000005
-0.20000000,0.30009587,0.00000009
-0.20000000,0.40018380,-0.00000000
-0.20000000,0.49974713,0.00000003
-0.20000000,0.59988972,-0.00000002
-0.20000000,0.69998450,0.00000003
-0.20000000,0.80004861,0.00000007
-0.20000000,0.90013033,0.00000009
-0.20000000,1.00021800,0.00000006
-0.20000000,1.09985750,0.00000002
-0.20000000,1.19994540,0.00000007
-0.20000000,1.30002150,0.00000002
-0.20000000,1.40009030,0.00000010
-0.20000000,1.50018480,0.00000012
-0.20000000,1.60031440,0.00000007
-0.20000000,1.69987990,0.00000005
-0.20000000,1.79996810,0.00000015
-0.20000000,1.90004190,0.00000014
-0.20000000,2.00012880,0.00000006
-0.20000000,2.10019730,0.00000013
-0.20000000,2.20022690,0.00000010
-0.20000000,2.29979530,0.00000010
-0.20000000,2.39986000,0.00000012
-0.20000000,2.49995200,0.00000017
-0.20000000,2.60003370,0.00000017
-0.20000000,2.70017240,0.00000016
-0.20000000,2.80026060,0.00000012
-0.20000000,2.89981570,0.00000015
-0.20000000,2.99990140,0.00000007
-0.20000000,3.09998700,0.00000010
-0.20000000,3.20013990,0.00000018
-0.20000000,3.30021140,0.00000015
-0.20000000,3.39978200,0.00000012
-0.20000000,3.49986630,0.00000019
-0.20000000,3.59994940,0.00000016
-0.20000000,3.70002980,0.00000014
-0.20000000,3.80016980,0.00000014
-0.20000000,3.90026080,0.00000012
-0.20000000,3.99980820,0.00000014
-0.20000000,4.09988340,0.00000022
-0.20000000,4.19996910,0.00000016
-0.20000000,4.29992510,0.00000019
-0.20000000,4.40002850,0.00000017
-0.20000000,4.50010380,0.00000015
-0.20000000,4.59966800,0.00000018
-0.20000000,4.69975510,0.00000014
-0.20000000,4.79988350,0.00000019
-0.20000000,4.89997690,0.00000019
-0.20000000,5.00006640,0.00000013
-0.10000000,-0.00016715,-0.00000000
-0.10000000,0.09993588,0.00000012
-0.10000000,0.20001453,0.00000013
-0.10000000,0.30009901,0.00000018
-0.10000000,0.40018419,0.00000019
-0.10000000,0.49974517,0.00000020
-0.10000000,0.59988959,0.00000025
-0.10000000,0.69998071,0.00000021
-0.10000000,0.80005293,0.00000028
-0.10000000,0.90013478,0.00000025
-0.10000000,1.00021870,0.00000026
-0.10000000,1.09985750,0.00000025
-0.10000000,1.19994150,0.00000032
-0.10000000,1.30002280,0.00000032
-0.10000000,1.40009160,0.00000033
-0.10000000,1.50018610,0.00000030
-0.10000000,1.60031180,0.00000032
-0.10000000,1.69987600,0.00000034
-0.10000000,1.79996550,0.00000039
-0.10000000,1.90003540,0.00000031
-0.10000000,2.00012360,0.00000035
-0.10000000,2.10019860,0.00000033
-0.10000000,2.20021910,0.00000035
-0.10000000,2.29979660,0.00000035
-0.10000000,2.39985350,0.00000035
-0.10000000,2.49994810,0.00000035
-0.10000000,2.60003110,0.00000041
-0.10000000,2.70017500,0.00000033
-0.10000000,2.80026190,0.00000040
-0.10000000,2.89981570,0.00000041
-0.10000000,2.99989880,0.00000040
-0.10000000,3.09998700,0.00000040
-0.10000000,3.20013210,0.00000037
-0.10000000,3.30021270,0.00000037
-0.10000000,3.39977940,0.00000039
-0.10000000,3.49986500,0.00000039
-0.10000000,3.59994810,0.00000043
-0.10000000,3.70002720,0.00000046
-0.10000000,3.80016460,0.00000037
-0.10000000,3.90025820,0.00000041
-0.10000000,3.99980690,0.00000041
-0.10000000,4.09988080,0.00000043
-0.10000000,4.19996520,0.00000045
-0.10000000,4.29991990,0.00000043
-0.10000000,4.40002340,0.00000045
-0.10000000,4.50010250,0.00000050
-0.10000000,4.59966280,0.00000044
-0.10000000,4.69975640,0.00000044
-0.10000000,4.79988480,0.00000043
-0.10000000,4.89997560,0.00000046
-0.10000000,5.00005870,0.00000054
0.00000000,-0.00017150,0.00000001
0.00000000,0.09992968,0.00000096
0.00000000,0.20000721,0.00000112
0.00000000,0.30009129,0.00000111
0.00000000,0.40017712,0.00000114
0.00000000,0.49974098,0.00000120
0.00000000,0.59988409,0.00000128
0.00000000,0.69997220,0.00000129
0.00000000,0.80004403,0.00000136
0.00000000,0.90012300,0.00000140
0.00000000,1.00020790,0.00000135
0.00000000,1.09985220,0.00000142
0.00000000,1.19993290,0.00000146
0.00000000,1.30001500,0.00000149
0.00000000,1.40008640,0.00000147
0.00000000,1.50017310,0.00000158
0.00000000,1.60030400,0.00000157
0.00000000,1.69987210,0.00000160
0.00000000,1.79996030,0.00000157
0.00000000,1.90002890,0.00000161
0.00000000,2.00011320,0.00000161
0.00000000,2.10019220,0.00000159
0.00000000,2.20021520,0.00000169
0.00000000,2.29978750,0.00000165
0.00000000,2.39984310,0.00000172
0.00000000,2.49993380,0.00000171
0.00000000,2.60002720,0.00000175
0.00000000,2.70016980,0.00000177
0.00000000,2.80025150,0.00000176
0.00000000,2.89980920,0.00000170
0.00000000,2.99988720,0.00000174
0.00000000,3.09997400,0.00000177
0.00000000,3.20012050,0.00000183
0.00000000,3.30020360,0.00000181
0.00000000,3.39977430,0.00000184
0.00000000,3.49985720,0.00000180
0.00000000,3.59993900,0.00000186
0.00000000,3.70001950,0.00000183
0.00000000,3.80015560,0.00000190
0.00000000,3.90025180,0.00000186
0.00000000,3.99979520,0.00000187
0.00000000,4.09987430,0.00000188
0.00000000,4.19996260,0.00000194
0.00000000,4.29991340,0.00000193
0.00000000,4.40001690,0.00000197
0.00000000,4.50009470,0.00000195
0.00000000,4.59965890,0.00000196
0.00000000,4.69974860,0.00000201
0.00000000,4.79987960,0.00000199
0.00000000,4.89996400,0.00000211
0.00000000,5.00004960,0.00000199
0.10000000,-0.00017002,-0.00000004
0.10000000,0.09991796,0.00000330
0.10000000,0.19998875,0.00000393
0.10000000,0.30007297,0.00000415
0.10000000,0.40015802,0.00000421
0.10000000,0.49972371,0.00000436
0.10000000,0.59986394,0.00000441
0.10000000,0.69995532,0.00000453
0.10000000,0.80002310,0.00000460
0.10000000,0.90010416,0.00000471
0.10000000,1.00019000,0.00000473
0.10000000,1.09983100,0.00000478
0.10000000,1.19991520,0.00000489
0.10000000,1.29999170,0.00000491
0.10000000,1.40006310,0.00000494
0.10000000,1.50015370,0.00000507
0.10000000,1.60028200,0.00000513
0.10000000,1.69985660,0.00000513
0.10000000,1.79993700,0.00000518
0.10000000,1.90001200,0.00000520
0.10000000,2.00009380,0.00000526
0.10000000,2.10017400,0.00000532
0.10000000,2.20019710,0.00000535
0.10000000,2.29976290,0.00000543
