Vgs,	Vds,	Ids
-5.00000000,-4.99510850,-0.00081166
-5.00000000,-4.89502990,-0.00081135
-5.00000000,-4.79494620,-0.00081096
-5.00000000,-4.69533970,-0.00081076
-5.00000000,-4.59525580,-0.00081032
-5.00000000,-4.49517710,-0.00080999
-5.00000000,-4.39510770,-0.00080958
-5.00000000,-4.29500940,-0.00080912
-5.00000000,-4.19506310,-0.00080869
-5.00000000,-4.09550300,-0.00080818
-5.00000000,-3.99543100,-0.00080763
-5.00000000,-3.89537310,-0.00080701
-5.00000000,-3.79528530,-0.00080629
-5.00000000,-3.69515090,-0.00080544
-5.00000000,-3.59508400,-0.00080440
-5.00000000,-3.49552910,-0.00080326
-5.00000000,-3.39546210,-0.00080175
-5.00000000,-3.29538350,-0.00079978
-5.00000000,-3.19532280,-0.00079730
-5.00000000,-3.09519620,-0.00079431
-5.00000000,-2.99513700,-0.00079021
-5.00000000,-2.89561190,-0.00078531
-5.00000000,-2.79556830,-0.00077935
-5.00000000,-2.69552830,-0.00077214
-5.00000000,-2.59543020,-0.00076372
-5.00000000,-2.49541090,-0.00075394
-5.00000000,-2.39538800,-0.00074279
-5.00000000,-2.29590970,-0.00073010
-5.00000000,-2.19591910,-0.00071601
-5.00000000,-2.09599330,-0.00070035
-5.00000000,-1.99601830,-0.00068319
-5.00000000,-1.89604430,-0.00066448
-5.00000000,-1.79609780,-0.00064416
-5.00000000,-1.69665820,-0.00062228
-5.00000000,-1.59671060,-0.00059883
-5.00000000,-1.49673660,-0.00057368
-5.00000000,-1.39680180,-0.00054697
-5.00000000,-1.29689530,-0.00051865
-5.00000000,-1.19699280,-0.00048867
-5.00000000,-1.09761170,-0.00045725
-5.00000000,-0.99765350,-0.00042404
-5.00000000,-0.89777105,-0.00038928
-5.00000000,-0.79791104,-0.00035279
-5.00000000,-0.69806169,-0.00031458
-5.00000000,-0.59821209,-0.00027479
-5.00000000,-0.49883153,-0.00023342
-5.00000000,-0.39900358,-0.00019024
-5.00000000,-0.29918539,-0.00014528
-5.00000000,-0.19937784,-0.00009861
-5.00000000,-0.09958587,-0.00005019
-5.00000000,-0.00016238,-0.00000007
-4.90000000,-4.99530820,-0.00077730
-4.90000000,-4.89523350,-0.00077684
-4.90000000,-4.79515370,-0.00077651
-4.90000000,-4.69554200,-0.00077610
-4.90000000,-4.59546330,-0.00077583
-4.90000000,-4.49537950,-0.00077548
-4.90000000,-4.39530870,-0.00077506
-4.90000000,-4.29521300,-0.00077464
-4.90000000,-4.19526410,-0.00077418
-4.90000000,-4.09570400,-0.00077374
-4.90000000,-3.99563070,-0.00077324
-4.90000000,-3.89556890,-0.00077271
-4.90000000,-3.79548760,-0.00077208
-4.90000000,-3.69535190,-0.00077148
-4.90000000,-3.59528630,-0.00077057
-4.90000000,-3.49572490,-0.00076956
-4.90000000,-3.39566190,-0.00076831
-4.90000000,-3.29557540,-0.00076675
-4.90000000,-3.19550830,-0.00076471
-4.90000000,-3.09538160,-0.00076228
-4.90000000,-2.99531860,-0.00075901
-4.90000000,-2.89578830,-0.00075495
-4.90000000,-2.79573950,-0.00074981
-4.90000000,-2.69569300,-0.00074362
-4.90000000,-2.59559620,-0.00073617
-4.90000000,-2.49556390,-0.00072751
-4.90000000,-2.39553330,-0.00071741
-4.90000000,-2.29604980,-0.00070583
-4.90000000,-2.19605010,-0.00069281
-4.90000000,-2.09612170,-0.00067831
-4.90000000,-1.99613890,-0.00066234
-4.90000000,-1.89615580,-0.00064469
-4.90000000,-1.79620030,-0.00062548
-4.90000000,-1.69676070,-0.00060481
-4.90000000,-1.59680260,-0.00058244
-4.90000000,-1.49681960,-0.00055842
-4.90000000,-1.39688220,-0.00053280
-4.90000000,-1.29696930,-0.00050557
-4.90000000,-1.19706280,-0.00047679
-4.90000000,-1.09767660,-0.00044641
-4.90000000,-0.99770937,-0.00041425
-4.90000000,-0.89782653,-0.00038045
-4.90000000,-0.79795645,-0.00034503
-4.90000000,-0.69810801,-0.00030785
-4.90000000,-0.59824480,-0.00026895
-4.90000000,-0.49886254,-0.00022867
-4.90000000,-0.39902805,-0.00018642
-4.90000000,-0.29920659,-0.00014244
-4.90000000,-0.19939275,-0.00009674
-4.90000000,-0.09959295,-0.00004922
-4.90000000,-0.00016304,-0.00000012
-4.80000000,-4.99551310,-0.00074297
-4.80000000,-4.89543320,-0.00074261
-4.80000000,-4.79535210,-0.00074234
-4.80000000,-4.69574170,-0.00074198
-4.80000000,-4.59566170,-0.00074166
-4.80000000,-4.49558820,-0.00074137
-4.80000000,-4.39551490,-0.00074096
-4.80000000,-4.29541140,-0.00074062
-4.80000000,-4.19546780,-0.00074024
-4.80000000,-4.09590770,-0.00073985
-4.80000000,-3.99583040,-0.00073929
-4.80000000,-3.89576860,-0.00073892
-4.80000000,-3.79568470,-0.00073828
-4.80000000,-3.69555550,-0.00073774
-4.80000000,-3.59548470,-0.00073696
-4.80000000,-3.49591820,-0.00073622
-4.80000000,-3.39585380,-0.00073510
-4.80000000,-3.29577510,-0.00073393
-4.80000000,-3.19570930,-0.00073236
-4.80000000,-3.09557490,-0.00073030
-4.80000000,-2.99550400,-0.00072766
-4.80000000,-2.89596990,-0.00072433
-4.80000000,-2.79591460,-0.00072011
-4.80000000,-2.69586420,-0.00071483
-4.80000000,-2.59576220,-0.00070833
-4.80000000,-2.49572080,-0.00070066
-4.80000000,-2.39569020,-0.00069165
-4.80000000,-2.29619370,-0.00068133
-4.80000000,-2.19619400,-0.00066939
-4.80000000,-2.09625260,-0.00065605
-4.80000000,-1.99626730,-0.00064113
-4.80000000,-1.89627380,-0.00062465
-4.80000000,-1.79631570,-0.00060668
-4.80000000,-1.69687220,-0.00058710
-4.80000000,-1.59690510,-0.00056583
-4.80000000,-1.49691420,-0.00054297
-4.80000000,-1.39696650,-0.00051851
-4.80000000,-1.29705480,-0.00049244
-4.80000000,-1.19713280,-0.00046462
-4.80000000,-1.09774010,-0.00043539
-4.80000000,-0.99776669,-0.00040425
-4.80000000,-0.89787665,-0.00037151
-4.80000000,-0.79799819,-0.00033711
-4.80000000,-0.69814256,-0.00030098
-4.80000000,-0.59827568,-0.00026316
-4.80000000,-0.49888871,-0.00022385
-4.80000000,-0.39905055,-0.00018270
-4.80000000,-0.29921496,-0.00013965
-4.80000000,-0.19939930,-0.00009492
-4.80000000,-0.09959847,-0.00004834
-4.80000000,-0.00016499,-0.00000006
-4.70000000,-4.99571280,-0.00070936
-4.70000000,-4.89563170,-0.00070894
-4.70000000,-4.79554660,-0.00070870
-4.70000000,-4.69594400,-0.00070840
-4.70000000,-4.59585620,-0.00070800
-4.70000000,-4.49578150,-0.00070778
-4.70000000,-4.39570420,-0.00070746
-4.70000000,-4.29560850,-0.00070715
-4.70000000,-4.19566490,-0.00070676
-4.70000000,-4.09610220,-0.00070639
-4.70000000,-3.99602620,-0.00070593
-4.70000000,-3.89596580,-0.00070555
-4.70000000,-3.79587920,-0.00070506
-4.70000000,-3.69574740,-0.00070455
-4.70000000,-3.59567800,-0.00070401
-4.70000000,-3.49611920,-0.00070321
-4.70000000,-3.39604830,-0.00070245
-4.70000000,-3.29596060,-0.00070138
-4.70000000,-3.19589470,-0.00070014
-4.70000000,-3.09575640,-0.00069856
-4.70000000,-2.99568820,-0.00069646
-4.70000000,-2.89614750,-0.00069372
-4.70000000,-2.79609090,-0.00069024
-4.70000000,-2.69603530,-0.00068585
-4.70000000,-2.59592170,-0.00068035
-4.70000000,-2.49587650,-0.00067362
-4.70000000,-2.39584450,-0.00066568
-4.70000000,-2.29634160,-0.00065645
-4.70000000,-2.19633280,-0.00064574
-4.70000000,-2.09638230,-0.00063347
-4.70000000,-1.99639310,-0.00061965
-4.70000000,-1.89639310,-0.00060438
-4.70000000,-1.79642590,-0.00058752
-4.70000000,-1.69697080,-0.00056912
-4.70000000,-1.59700110,-0.00054903
-4.70000000,-1.49700630,-0.00052731
-4.70000000,-1.39704950,-0.00050394
-4.70000000,-1.29713270,-0.00047903
-4.70000000,-1.19720420,-0.00045230
-4.70000000,-1.09780760,-0.00042416
-4.70000000,-0.99782767,-0.00039415
-4.70000000,-0.89793095,-0.00036247
-4.70000000,-0.79804648,-0.00032906
-4.70000000,-0.69818234,-0.00029405
-4.70000000,-0.59831259,-0.00025722
-4.70000000,-0.49892077,-0.00021891
-4.70000000,-0.39907097,-0.00017870
-4.70000000,-0.29923590,-0.00013677
-4.70000000,-0.19941160,-0.00009294
-4.70000000,-0.09960437,-0.00004737
-4.70000000,-0.00016693,-0.00000009
-4.60000000,-4.99590340,-0.00067624
-4.60000000,-4.89582490,-0.00067590
-4.60000000,-4.79574510,-0.00067565
-4.60000000,-4.69613730,-0.00067542
-4.60000000,-4.59605080,-0.00067510
-4.60000000,-4.49597210,-0.00067474
-4.60000000,-4.39590140,-0.00067452
-4.60000000,-4.29580050,-0.00067422
-4.60000000,-4.19585420,-0.00067387
-4.60000000,-4.09628890,-0.00067356
-4.60000000,-3.99621950,-0.00067317
-4.60000000,-3.89615900,-0.00067275
-4.60000000,-3.79607510,-0.00067233
-4.60000000,-3.69593940,-0.00067190
-4.60000000,-3.59586600,-0.00067139
-4.60000000,-3.49630460,-0.00067082
-4.60000000,-3.39623760,-0.00067007
-4.60000000,-3.29615120,-0.00066925
-4.60000000,-3.19608670,-0.00066825
-4.60000000,-3.09594450,-0.00066697
-4.60000000,-2.99587230,-0.00066535
-4.60000000,-2.89632910,-0.00066317
-4.60000000,-2.79626340,-0.00066037
-4.60000000,-2.69620390,-0.00065673
-4.60000000,-2.59609030,-0.00065208
-4.60000000,-2.49603730,-0.00064645
-4.60000000,-2.39599370,-0.00063948
-4.60000000,-2.29649070,-0.00063134
-4.60000000,-2.19647410,-0.00062166
-4.60000000,-2.09652370,-0.00061063
-4.60000000,-1.99651760,-0.00059797
-4.60000000,-1.89652150,-0.00058383
-4.60000000,-1.79654000,-0.00056807
-4.60000000,-1.69708100,-0.00055098
-4.60000000,-1.59710350,-0.00053203
-4.60000000,-1.49709710,-0.00051144
-4.60000000,-1.39713770,-0.00048927
-4.60000000,-1.29721050,-0.00046535
-4.60000000,-1.19727680,-0.00043983
-4.60000000,-1.09787500,-0.00041277
-4.60000000,-0.99788825,-0.00038386
-4.60000000,-0.89798473,-0.00035332
-4.60000000,-0.79809817,-0.00032103
-4.60000000,-0.69822827,-0.00028701
-4.60000000,-0.59835014,-0.00025126
-4.60000000,-0.49894851,-0.00021403
-4.60000000,-0.39909609,-0.00017483
-4.60000000,-0.29925317,-0.00013383
-4.60000000,-0.19942167,-0.00009102
-4.60000000,-0.09960828,-0.00004642
-4.60000000,-0.00016411,-0.00000008
-4.50000000,-4.99609410,-0.00064380
-4.50000000,-4.89601550,-0.00064345
-4.50000000,-4.79593440,-0.00064322
-4.50000000,-4.69632660,-0.00064304
-4.50000000,-4.59624270,-0.00064279
-4.50000000,-4.49616400,-0.00064247
-4.50000000,-4.39609200,-0.00064220
-4.50000000,-4.29599240,-0.00064195
-4.50000000,-4.19604610,-0.00064167
-4.50000000,-4.09647830,-0.00064133
-4.50000000,-3.99641010,-0.00064095
-4.50000000,-3.89634440,-0.00064064
-4.50000000,-3.79625790,-0.00064019
-4.50000000,-3.69612350,-0.00063978
-4.50000000,-3.59605150,-0.00063939
-4.50000000,-3.49649270,-0.00063890
-4.50000000,-3.39642310,-0.00063834
-4.50000000,-3.29633540,-0.00063760
-4.50000000,-3.19626690,-0.00063685
-4.50000000,-3.09612470,-0.00063579
-4.50000000,-2.99605000,-0.00063446
-4.50000000,-2.89650030,-0.00063277
-4.50000000,-2.79643460,-0.00063057
-4.50000000,-2.69637380,-0.00062766
-4.50000000,-2.59625370,-0.00062385
-4.50000000,-2.49619940,-0.00061905
-4.50000000,-2.39614540,-0.00061313
-4.50000000,-2.29663600,-0.00060592
-4.50000000,-2.19661420,-0.00059747
-4.50000000,-2.09665470,-0.00058755
-4.50000000,-1.99664590,-0.00057606
-4.50000000,-1.89663820,-0.00056312
-4.50000000,-1.79665160,-0.00054852
-4.50000000,-1.69718090,-0.00053245
-4.50000000,-1.59719690,-0.00051474
-4.50000000,-1.49719440,-0.00049531
-4.50000000,-1.39722720,-0.00047428
-4.50000000,-1.29728830,-0.00045152
-4.50000000,-1.19735200,-0.00042721
-4.50000000,-1.09793720,-0.00040124
-4.50000000,-0.99794871,-0.00037346
-4.50000000,-0.89803721,-0.00034398
-4.50000000,-0.79814240,-0.00031274
-4.50000000,-0.69826701,-0.00027988
-4.50000000,-0.59838469,-0.00024518
-4.50000000,-0.49897691,-0.00020894
-4.50000000,-0.39912030,-0.00017083
-4.50000000,-0.29926901,-0.00013088
-4.50000000,-0.19943607,-0.00008904
-4.50000000,-0.09961776,-0.00004538
-4.50000000,-0.00016460,-0.00000008
-4.40000000,-4.99628080,-0.00061201
-4.40000000,-4.89620100,-0.00061174
-4.40000000,-4.79611850,-0.00061153
-4.40000000,-4.69651340,-0.00061124
-4.40000000,-4.59642810,-0.00061101
-4.40000000,-4.49634560,-0.00061078
-4.40000000,-4.39627870,-0.00061051
-4.40000000,-4.29617400,-0.00061020
-4.40000000,-4.19622640,-0.00060989
-4.40000000,-4.09666240,-0.00060968
-4.40000000,-3.99659430,-0.00060934
-4.40000000,-3.89653380,-0.00060902
-4.40000000,-3.79644080,-0.00060870
-4.40000000,-3.69630770,-0.00060836
-4.40000000,-3.59623950,-0.00060792
-4.40000000,-3.49667940,-0.00060751
-4.40000000,-3.39660600,-0.00060705
-4.40000000,-3.29651690,-0.00060645
-4.40000000,-3.19644720,-0.00060582
-4.40000000,-3.09630890,-0.00060496
-4.40000000,-2.99622770,-0.00060396
-4.40000000,-2.89668440,-0.00060258
-4.40000000,-2.79660970,-0.00060077
-4.40000000,-2.69654890,-0.00059855
-4.40000000,-2.59642100,-0.00059552
-4.40000000,-2.49635890,-0.00059157
-4.40000000,-2.39630490,-0.00058655
-4.40000000,-2.29678380,-0.00058046
-4.40000000,-2.19675810,-0.00057303
-4.40000000,-2.09678950,-0.00056415
-4.40000000,-1.99677690,-0.00055389
-4.40000000,-1.89675880,-0.00054200
-4.40000000,-1.79676830,-0.00052868
-4.40000000,-1.69729630,-0.00051386
-4.40000000,-1.59730840,-0.00049725
-4.40000000,-1.49728770,-0.00047900
-4.40000000,-1.39731530,-0.00045911
-4.40000000,-1.29737390,-0.00043755
-4.40000000,-1.19743240,-0.00041435
-4.40000000,-1.09800730,-0.00038959
-4.40000000,-0.99801047,-0.00036289
-4.40000000,-0.89809243,-0.00033458
-4.40000000,-0.79819474,-0.00030442
-4.40000000,-0.69831150,-0.00027265
-4.40000000,-0.59841976,-0.00023905
-4.40000000,-0.49900792,-0.00020387
-4.40000000,-0.39914412,-0.00016676
-4.40000000,-0.29929021,-0.00012785
-4.40000000,-0.19945007,-0.00008700
-4.40000000,-0.09962168,-0.00004443
-4.40000000,-0.00016346,-0.00000009
-4.30000000,-4.99645980,-0.00058088
-4.30000000,-4.89638250,-0.00058055
-4.30000000,-4.79630270,-0.00058028
-4.30000000,-4.69669230,-0.00058015
-4.30000000,-4.59660970,-0.00057989
-4.30000000,-4.49653490,-0.00057964
-4.30000000,-4.39646160,-0.00057942
-4.30000000,-4.29636070,-0.00057916
-4.30000000,-4.19640930,-0.00057894
-4.30000000,-4.09684790,-0.00057865
-4.30000000,-3.99677190,-0.00057842
-4.30000000,-3.89670630,-0.00057811
-4.30000000,-3.79662620,-0.00057781
-4.30000000,-3.69649180,-0.00057748
-4.30000000,-3.59641850,-0.00057718
-4.30000000,-3.49685320,-0.00057672
-4.30000000,-3.39678620,-0.00057631
-4.30000000,-3.29669850,-0.00057575
-4.30000000,-3.19662870,-0.00057520
-4.30000000,-3.09648530,-0.00057459
-4.30000000,-2.99640530,-0.00057375
-4.30000000,-2.89685300,-0.00057273
-4.30000000,-2.79678220,-0.00057136
-4.30000000,-2.69671230,-0.00056957
-4.30000000,-2.59658830,-0.00056719
-4.30000000,-2.49651970,-0.00056406
-4.30000000,-2.39645660,-0.00055991
-4.30000000,-2.29693940,-0.00055476
-4.30000000,-2.19690080,-0.00054832
-4.30000000,-2.09692570,-0.00054055
-4.30000000,-1.99690790,-0.00053148
-4.30000000,-1.89688460,-0.00052074
-4.30000000,-1.79688890,-0.00050863
-4.30000000,-1.69740650,-0.00049489
-4.30000000,-1.59741220,-0.00047949
-4.30000000,-1.49738240,-0.00046252
-4.30000000,-1.39740610,-0.00044379
-4.30000000,-1.29745820,-0.00042342
-4.30000000,-1.19750760,-0.00040133
-4.30000000,-1.09808510,-0.00037767
-4.30000000,-0.99807119,-0.00035219
-4.30000000,-0.89814804,-0.00032494
-4.30000000,-0.79824525,-0.00029599
-4.30000000,-0.69835494,-0.00026526
-4.30000000,-0.59845339,-0.00023282
-4.30000000,-0.49903606,-0.00019865
-4.30000000,-0.39916231,-0.00016255
-4.30000000,-0.29930447,-0.00012475
-4.30000000,-0.19946014,-0.00008498
-4.30000000,-0.09962619,-0.00004333
-4.30000000,-0.00016241,-0.00000007
-4.20000000,-4.99663870,-0.00055037
-4.20000000,-4.89656670,-0.00055010
-4.20000000,-4.79647520,-0.00054984
-4.20000000,-4.69687130,-0.00054970
-4.20000000,-4.59678870,-0.00054945
-4.20000000,-4.49670480,-0.00054923
-4.20000000,-4.39663410,-0.00054904
-4.20000000,-4.29653450,-0.00054884
-4.20000000,-4.19658690,-0.00054856
-4.20000000,-4.09702160,-0.00054832
-4.20000000,-3.99694830,-0.00054811
-4.20000000,-3.89688650,-0.00054782
-4.20000000,-3.79680000,-0.00054751
-4.20000000,-3.69666950,-0.00054724
-4.20000000,-3.59659480,-0.00054692
-4.20000000,-3.49703080,-0.00054664
-4.20000000,-3.39696260,-0.00054626
-4.20000000,-3.29687880,-0.00054579
-4.20000000,-3.19680250,-0.00054531
-4.20000000,-3.09665260,-0.00054476
-4.20000000,-2.99657780,-0.00054418
-4.20000000,-2.89702420,-0.00054329
-4.20000000,-2.79695850,-0.00054220
-4.20000000,-2.69688350,-0.00054084
-4.20000000,-2.59675300,-0.00053902
-4.20000000,-2.49668310,-0.00053653
-4.20000000,-2.39661610,-0.00053313
-4.20000000,-2.29708990,-0.00052892
-4.20000000,-2.19704340,-0.00052352
-4.20000000,-2.09706190,-0.00051683
-4.20000000,-1.99704280,-0.00050877
-4.20000000,-1.89701300,-0.00049933
-4.20000000,-1.79701470,-0.00048824
-4.20000000,-1.69751930,-0.00047579
-4.20000000,-1.59751330,-0.00046157
-4.20000000,-1.49748490,-0.00044575
-4.20000000,-1.39750080,-0.00042825
-4.20000000,-1.29754250,-0.00040905
-4.20000000,-1.19758800,-0.00038823
-4.20000000,-1.09814860,-0.00036568
-4.20000000,-0.99813806,-0.00034132
-4.20000000,-0.89820614,-0.00031523
-4.20000000,-0.79829563,-0.00028740
-4.20000000,-0.69839904,-0.00025793
-4.20000000,-0.59849539,-0.00022645
-4.20000000,-0.49906628,-0.00019344
-4.20000000,-0.39919293,-0.00015847
-4.20000000,-0.29932488,-0.00012159
-4.20000000,-0.19947127,-0.00008299
-4.20000000,-0.09963412,-0.00004239
-4.20000000,-0.00016410,-0.00000009
-4.10000000,-4.99681380,-0.00052050
-4.10000000,-4.89673790,-0.00052032
-4.10000000,-4.79665410,-0.00052005
-4.10000000,-4.69704510,-0.00051993
-4.10000000,-4.59696240,-0.00051966
-4.10000000,-4.49688380,-0.00051949
-4.10000000,-4.39681300,-0.00051933
-4.10000000,-4.29671090,-0.00051904
-4.10000000,-4.19676070,-0.00051881
-4.10000000,-4.09719670,-0.00051860
-4.10000000,-3.99712340,-0.00051845
-4.10000000,-3.89706680,-0.00051810
-4.10000000,-3.79697510,-0.00051795
-4.10000000,-3.69683680,-0.00051769
-4.10000000,-3.59676860,-0.00051739
-4.10000000,-3.49720980,-0.00051708
-4.10000000,-3.39713510,-0.00051672
-4.10000000,-3.29704220,-0.00051633
-4.10000000,-3.19697110,-0.00051595
-4.10000000,-3.09683150,-0.00051550
-4.10000000,-2.99674510,-0.00051496
-4.10000000,-2.89719410,-0.00051429
-4.10000000,-2.79711930,-0.00051352
-4.10000000,-2.69705210,-0.00051242
-4.10000000,-2.59691510,-0.00051102
-4.10000000,-2.49684000,-0.00050909
-4.10000000,-2.39677310,-0.00050649
-4.10000000,-2.29723770,-0.00050305
-4.10000000,-2.19719260,-0.00049859
-4.10000000,-2.09721100,-0.00049292
-4.10000000,-1.99717510,-0.00048597
-4.10000000,-1.89714270,-0.00047761
-4.10000000,-1.79713400,-0.00046770
-4.10000000,-1.69763860,-0.00045643
-4.10000000,-1.59762360,-0.00044343
-4.10000000,-1.49758210,-0.00042875
-4.10000000,-1.39758770,-0.00041247
-4.10000000,-1.29762420,-0.00039447
-4.10000000,-1.19766450,-0.00037486
-4.10000000,-1.09821870,-0.00035351
-4.10000000,-0.99820231,-0.00033038
-4.10000000,-0.89826228,-0.00030541
-4.10000000,-0.79834248,-0.00027879
-4.10000000,-0.69844052,-0.00025029
-4.10000000,-0.59852915,-0.00022005
-4.10000000,-0.49909677,-0.00018812
-4.10000000,-0.39921321,-0.00015426
-4.10000000,-0.29934098,-0.00011846
-4.10000000,-0.19948422,-0.00008090
-4.10000000,-0.09963908,-0.00004141
-4.10000000,-0.00016446,-0.00000004
-4.00000000,-4.99698630,-0.00049142
-4.00000000,-4.89691030,-0.00049106
-4.00000000,-4.79682010,-0.00049095
-4.00000000,-4.69721880,-0.00049078
-4.00000000,-4.59713100,-0.00049055
-4.00000000,-4.49705760,-0.00049039
-4.00000000,-4.39698030,-0.00049025
-4.00000000,-4.29687820,-0.00049007
-4.00000000,-4.19693190,-0.00048982
-4.00000000,-4.09736400,-0.00048963
-4.00000000,-3.99729840,-0.00048947
-4.00000000,-3.89723540,-0.00048924
-4.00000000,-3.79714370,-0.00048895
-4.00000000,-3.69700930,-0.00048867
-4.00000000,-3.59693850,-0.00048847
-4.00000000,-3.49737450,-0.00048819
-4.00000000,-3.39730240,-0.00048796
-4.00000000,-3.29721080,-0.00048757
-4.00000000,-3.19713840,-0.00048726
-4.00000000,-3.09700010,-0.00048685
-4.00000000,-2.99691630,-0.00048647
-4.00000000,-2.89736270,-0.00048586
-4.00000000,-2.79728920,-0.00048525
-4.00000000,-2.69721290,-0.00048443
-4.00000000,-2.59707850,-0.00048331
-4.00000000,-2.49700340,-0.00048187
-4.00000000,-2.39692870,-0.00047985
-4.00000000,-2.29739200,-0.00047722
-4.00000000,-2.19734040,-0.00047352
-4.00000000,-2.09734980,-0.00046883
-4.00000000,-1.99730730,-0.00046289
-4.00000000,-1.89726980,-0.00045571
-4.00000000,-1.79724940,-0.00044700
-4.00000000,-1.69774890,-0.00043683
-4.00000000,-1.59772860,-0.00042502
-4.00000000,-1.49768070,-0.00041162
-4.00000000,-1.39768110,-0.00039654
-4.00000000,-1.29771360,-0.00037972
-4.00000000,-1.19773980,-0.00036125
-4.00000000,-1.09829130,-0.00034121
-4.00000000,-0.99826277,-0.00031921
-4.00000000,-0.89831698,-0.00029547
-4.00000000,-0.79839037,-0.00026996
-4.00000000,-0.69848449,-0.00024265
-4.00000000,-0.59856789,-0.00021350
