Vgs,	Vds,	Ids
-5.00000000,-4.99612780,-0.00063826
-5.00000000,-4.89604660,-0.00063816
-5.00000000,-4.79596160,-0.00063793
-5.00000000,-4.69635770,-0.00063768
-5.00000000,-4.59627510,-0.00063747
-5.00000000,-4.49619910,-0.00063709
-5.00000000,-4.39612440,-0.00063697
-5.00000000,-4.29602350,-0.00063657
-5.00000000,-4.19607730,-0.00063628
-5.00000000,-4.09651330,-0.00063592
-5.00000000,-3.99644510,-0.00063560
-5.00000000,-3.89638070,-0.00063519
-5.00000000,-3.79629810,-0.00063475
-5.00000000,-3.69616110,-0.00063429
-5.00000000,-3.59609300,-0.00063368
-5.00000000,-3.49653030,-0.00063304
-5.00000000,-3.39646330,-0.00063233
-5.00000000,-3.29637690,-0.00063135
-5.00000000,-3.19630710,-0.00063023
-5.00000000,-3.09617140,-0.00062880
-5.00000000,-2.99609670,-0.00062689
-5.00000000,-2.89655860,-0.00062458
-5.00000000,-2.79649430,-0.00062147
-5.00000000,-2.69643480,-0.00061766
-5.00000000,-2.59632500,-0.00061294
-5.00000000,-2.49627330,-0.00060712
-5.00000000,-2.39623100,-0.00060026
-5.00000000,-2.29671770,-0.00059216
-5.00000000,-2.19670240,-0.00058278
-5.00000000,-2.09674800,-0.00057209
-5.00000000,-1.99674320,-0.00056004
-5.00000000,-1.89674070,-0.00054647
-5.00000000,-1.79675790,-0.00053156
-5.00000000,-1.69729630,-0.00051542
-5.00000000,-1.59730580,-0.00049751
-5.00000000,-1.49729680,-0.00047821
-5.00000000,-1.39732960,-0.00045735
-5.00000000,-1.29739070,-0.00043493
-5.00000000,-1.19745060,-0.00041113
-5.00000000,-1.09803190,-0.00038582
-5.00000000,-0.99803612,-0.00035879
-5.00000000,-0.89812266,-0.00033023
-5.00000000,-0.79821947,-0.00030012
-5.00000000,-0.69834199,-0.00026836
-5.00000000,-0.59844305,-0.00023504
-5.00000000,-0.49902873,-0.00020019
-5.00000000,-0.39916479,-0.00016353
-5.00000000,-0.29930290,-0.00012521
-5.00000000,-0.19946302,-0.00008515
-5.00000000,-0.09962500,-0.00004341
-5.00000000,-0.00015928,-0.00000008
-4.90000000,-4.99629250,-0.00061014
-4.90000000,-4.89621130,-0.00060979
-4.90000000,-4.79613020,-0.00060950
-4.90000000,-4.69652240,-0.00060935
-4.90000000,-4.59643850,-0.00060910
-4.90000000,-4.49636380,-0.00060881
-4.90000000,-4.39629170,-0.00060858
-4.90000000,-4.29619340,-0.00060826
-4.90000000,-4.19623680,-0.00060792
-4.90000000,-4.09667670,-0.00060756
-4.90000000,-3.99660590,-0.00060730
-4.90000000,-3.89654930,-0.00060697
-4.90000000,-3.79645890,-0.00060654
-4.90000000,-3.69632580,-0.00060612
-4.90000000,-3.59625250,-0.00060559
-4.90000000,-3.49669760,-0.00060506
-4.90000000,-3.39662280,-0.00060442
-4.90000000,-3.29653640,-0.00060363
-4.90000000,-3.19646530,-0.00060266
-4.90000000,-3.09632570,-0.00060152
-4.90000000,-2.99625230,-0.00059998
-4.90000000,-2.89671420,-0.00059814
-4.90000000,-2.79664730,-0.00059563
-4.90000000,-2.69658520,-0.00059241
-4.90000000,-2.59646250,-0.00058840
-4.90000000,-2.49640820,-0.00058341
-4.90000000,-2.39636070,-0.00057741
-4.90000000,-2.29684860,-0.00057021
-4.90000000,-2.19682820,-0.00056177
-4.90000000,-2.09686860,-0.00055196
-4.90000000,-1.99685340,-0.00054092
-4.90000000,-1.89684440,-0.00052840
-4.90000000,-1.79685910,-0.00051450
-4.90000000,-1.69738840,-0.00049924
-4.90000000,-1.59739660,-0.00048245
-4.90000000,-1.49737590,-0.00046413
-4.90000000,-1.39740480,-0.00044432
-4.90000000,-1.29746340,-0.00042295
-4.90000000,-1.19751540,-0.00040000
-4.90000000,-1.09809550,-0.00037571
-4.90000000,-0.99808990,-0.00034969
-4.90000000,-0.89816584,-0.00032201
-4.90000000,-0.79826370,-0.00029288
-4.90000000,-0.69837784,-0.00026206
-4.90000000,-0.59848165,-0.00022963
-4.90000000,-0.49906131,-0.00019579
-4.90000000,-0.39918665,-0.00015998
-4.90000000,-0.29931821,-0.00012258
-4.90000000,-0.19947127,-0.00008342
-4.90000000,-0.09963377,-0.00004258
-4.90000000,-0.00015548,-0.00000007
-4.80000000,-4.99645720,-0.00058192
-4.80000000,-4.89637860,-0.00058166
-4.80000000,-4.79629490,-0.00058143
-4.80000000,-4.69668710,-0.00058121
-4.80000000,-4.59660580,-0.00058094
-4.80000000,-4.49652200,-0.00058069
-4.80000000,-4.39645250,-0.00058044
-4.80000000,-4.29635680,-0.00058020
-4.80000000,-4.19640540,-0.00057995
-4.80000000,-4.09684270,-0.00057966
-4.80000000,-3.99677320,-0.00057929
-4.80000000,-3.89671140,-0.00057897
-4.80000000,-3.79662230,-0.00057864
-4.80000000,-3.69649050,-0.00057821
-4.80000000,-3.59641460,-0.00057780
-4.80000000,-3.49685710,-0.00057735
-4.80000000,-3.39678490,-0.00057676
-4.80000000,-3.29669720,-0.00057616
-4.80000000,-3.19662360,-0.00057536
-4.80000000,-3.09648270,-0.00057438
-4.80000000,-2.99640920,-0.00057324
-4.80000000,-2.89686340,-0.00057169
-4.80000000,-2.79680030,-0.00056969
-4.80000000,-2.69673690,-0.00056707
-4.80000000,-2.59661420,-0.00056369
-4.80000000,-2.49655340,-0.00055952
-4.80000000,-2.39649810,-0.00055423
-4.80000000,-2.29697830,-0.00054793
-4.80000000,-2.19695530,-0.00054039
-4.80000000,-2.09698660,-0.00053165
-4.80000000,-1.99697020,-0.00052158
-4.80000000,-1.89695470,-0.00051002
-4.80000000,-1.79696020,-0.00049717
-4.80000000,-1.69748820,-0.00048291
-4.80000000,-1.59748870,-0.00046715
-4.80000000,-1.49746020,-0.00044977
-4.80000000,-1.39748260,-0.00043099
-4.80000000,-1.29753210,-0.00041062
-4.80000000,-1.19757760,-0.00038871
-4.80000000,-1.09815380,-0.00036539
-4.80000000,-0.99814355,-0.00034040
-4.80000000,-0.89821753,-0.00031373
-4.80000000,-0.79830649,-0.00028548
-4.80000000,-0.69841671,-0.00025565
-4.80000000,-0.59850861,-0.00022416
-4.80000000,-0.49908408,-0.00019120
-4.80000000,-0.39920457,-0.00015643
-4.80000000,-0.29933771,-0.00011984
-4.80000000,-0.19947833,-0.00008166
-4.80000000,-0.09963829,-0.00004169
-4.80000000,-0.00015785,-0.00000005
-4.70000000,-4.99662060,-0.00055418
-4.70000000,-4.89654200,-0.00055393
-4.70000000,-4.79645700,-0.00055375
-4.70000000,-4.69685180,-0.00055352
-4.70000000,-4.59676660,-0.00055325
-4.70000000,-4.49668800,-0.00055307
-4.70000000,-4.39661200,-0.00055276
-4.70000000,-4.29651500,-0.00055255
-4.70000000,-4.19656620,-0.00055230
-4.70000000,-4.09700350,-0.00055205
-4.70000000,-3.99693140,-0.00055175
-4.70000000,-3.89686580,-0.00055146
-4.70000000,-3.79678180,-0.00055111
-4.70000000,-3.69665000,-0.00055083
-4.70000000,-3.59657410,-0.00055040
-4.70000000,-3.49701140,-0.00055002
-4.70000000,-3.39694570,-0.00054953
-4.70000000,-3.29685540,-0.00054897
-4.70000000,-3.19678570,-0.00054824
-4.70000000,-3.09664610,-0.00054757
-4.70000000,-2.99656350,-0.00054661
-4.70000000,-2.89702030,-0.00054534
-4.70000000,-2.79694810,-0.00054377
-4.70000000,-2.69687700,-0.00054163
-4.70000000,-2.59675690,-0.00053889
-4.70000000,-2.49669220,-0.00053531
-4.70000000,-2.39663560,-0.00053099
-4.70000000,-2.29711060,-0.00052558
-4.70000000,-2.19707330,-0.00051893
-4.70000000,-2.09710340,-0.00051114
-4.70000000,-1.99707910,-0.00050201
-4.70000000,-1.89705970,-0.00049153
-4.70000000,-1.79706270,-0.00047962
-4.70000000,-1.69757900,-0.00046644
-4.70000000,-1.59757300,-0.00045159
-4.70000000,-1.49754450,-0.00043532
-4.70000000,-1.39756300,-0.00041755
-4.70000000,-1.29760730,-0.00039819
-4.70000000,-1.19765160,-0.00037731
-4.70000000,-1.09821480,-0.00035498
-4.70000000,-0.99820061,-0.00033092
-4.70000000,-0.89826568,-0.00030534
-4.70000000,-0.79835059,-0.00027800
-4.70000000,-0.69844863,-0.00024917
-4.70000000,-0.59853975,-0.00021864
-4.70000000,-0.49911012,-0.00018661
-4.70000000,-0.39923074,-0.00015273
-4.70000000,-0.29934857,-0.00011715
-4.70000000,-0.19948867,-0.00007993
-4.70000000,-0.09964385,-0.00004080
-4.70000000,-0.00015893,-0.00000002
-4.60000000,-4.99677620,-0.00052691
-4.60000000,-4.89670030,-0.00052669
-4.60000000,-4.79662040,-0.00052649
-4.60000000,-4.69700870,-0.00052628
-4.60000000,-4.59692740,-0.00052612
-4.60000000,-4.49684750,-0.00052585
-4.60000000,-4.39677280,-0.00052569
-4.60000000,-4.29667840,-0.00052539
-4.60000000,-4.19672830,-0.00052523
-4.60000000,-4.09716170,-0.00052493
-4.60000000,-3.99708840,-0.00052468
-4.60000000,-3.89702790,-0.00052437
-4.60000000,-3.79694010,-0.00052415
-4.60000000,-3.69680570,-0.00052377
-4.60000000,-3.59673360,-0.00052341
-4.60000000,-3.49716960,-0.00052315
-4.60000000,-3.39710130,-0.00052273
-4.60000000,-3.29701230,-0.00052218
-4.60000000,-3.19694520,-0.00052169
-4.60000000,-3.09680300,-0.00052104
-4.60000000,-2.99671920,-0.00052030
-4.60000000,-2.89717460,-0.00051928
-4.60000000,-2.79710510,-0.00051802
-4.60000000,-2.69702610,-0.00051635
-4.60000000,-2.59689820,-0.00051413
-4.60000000,-2.49683350,-0.00051131
-4.60000000,-2.39677180,-0.00050760
-4.60000000,-2.29724030,-0.00050300
-4.60000000,-2.19720420,-0.00049718
-4.60000000,-2.09722400,-0.00049042
-4.60000000,-1.99719970,-0.00048223
-4.60000000,-1.89716990,-0.00047272
-4.60000000,-1.79716770,-0.00046187
-4.60000000,-1.69767240,-0.00044963
-4.60000000,-1.59767020,-0.00043587
-4.60000000,-1.49763010,-0.00042061
-4.60000000,-1.39764210,-0.00040383
-4.60000000,-1.29767730,-0.00038557
-4.60000000,-1.19771900,-0.00036569
-4.60000000,-1.09827960,-0.00034437
-4.60000000,-0.99825609,-0.00032139
-4.60000000,-0.89831672,-0.00029671
-4.60000000,-0.79839443,-0.00027047
-4.60000000,-0.69849169,-0.00024259
-4.60000000,-0.59857338,-0.00021307
-4.60000000,-0.49913852,-0.00018197
-4.60000000,-0.39924592,-0.00014906
-4.60000000,-0.29936872,-0.00011445
-4.60000000,-0.19950150,-0.00007810
-4.60000000,-0.09964740,-0.00003984
-4.60000000,-0.00015769,-0.00000005
-4.50000000,-4.99693440,-0.00050026
-4.50000000,-4.89685460,-0.00050005
-4.50000000,-4.79676960,-0.00049985
-4.50000000,-4.69716310,-0.00049956
-4.50000000,-4.59707790,-0.00049946
-4.50000000,-4.49699920,-0.00049927
-4.50000000,-4.39692590,-0.00049895
-4.50000000,-4.29682890,-0.00049884
-4.50000000,-4.19688130,-0.00049862
-4.50000000,-4.09731600,-0.00049838
-4.50000000,-3.99724010,-0.00049810
-4.50000000,-3.89718480,-0.00049788
-4.50000000,-3.79709700,-0.00049762
-4.50000000,-3.69696390,-0.00049732
-4.50000000,-3.59688920,-0.00049712
-4.50000000,-3.49732650,-0.00049674
-4.50000000,-3.39725570,-0.00049637
-4.50000000,-3.29716670,-0.00049598
-4.50000000,-3.19709170,-0.00049553
-4.50000000,-3.09695600,-0.00049502
-4.50000000,-2.99686700,-0.00049432
-4.50000000,-2.89731990,-0.00049357
-4.50000000,-2.79724380,-0.00049257
-4.50000000,-2.69717270,-0.00049120
-4.50000000,-2.59704860,-0.00048954
-4.50000000,-2.49697880,-0.00048715
-4.50000000,-2.39690920,-0.00048419
-4.50000000,-2.29737910,-0.00048026
-4.50000000,-2.19733520,-0.00047547
-4.50000000,-2.09734980,-0.00046942
-4.50000000,-1.99731510,-0.00046228
-4.50000000,-1.89727890,-0.00045376
-4.50000000,-1.79727150,-0.00044385
-4.50000000,-1.69777350,-0.00043270
-4.50000000,-1.59776100,-0.00041994
-4.50000000,-1.49772220,-0.00040579
-4.50000000,-1.39772260,-0.00039006
-4.50000000,-1.29775640,-0.00037279
-4.50000000,-1.19778510,-0.00035398
-4.50000000,-1.09834190,-0.00033368
-4.50000000,-0.99831157,-0.00031174
-4.50000000,-0.89836828,-0.00028806
-4.50000000,-0.79843866,-0.00026280
-4.50000000,-0.69852820,-0.00023598
-4.50000000,-0.59860832,-0.00020728
-4.50000000,-0.49917071,-0.00017727
-4.50000000,-0.39927393,-0.00014532
-4.50000000,-0.29938325,-0.00011166
-4.50000000,-0.19951249,-0.00007620
-4.50000000,-0.09965760,-0.00003898
-4.50000000,-0.00015864,-0.00000009
-4.40000000,-4.99708740,-0.00047407
-4.40000000,-4.89700760,-0.00047386
-4.40000000,-4.79692650,-0.00047368
-4.40000000,-4.69732000,-0.00047353
-4.40000000,-4.59723090,-0.00047335
-4.40000000,-4.49715090,-0.00047319
-4.40000000,-4.39707890,-0.00047296
-4.40000000,-4.29697670,-0.00047273
-4.40000000,-4.19703170,-0.00047253
-4.40000000,-4.09747040,-0.00047238
-4.40000000,-3.99739700,-0.00047218
-4.40000000,-3.89733910,-0.00047186
-4.40000000,-3.79725130,-0.00047167
-4.40000000,-3.69710910,-0.00047141
-4.40000000,-3.59704230,-0.00047124
-4.40000000,-3.49747700,-0.00047088
-4.40000000,-3.39740480,-0.00047052
-4.40000000,-3.29732230,-0.00047019
-4.40000000,-3.19724860,-0.00046984
-4.40000000,-3.09710000,-0.00046929
-4.40000000,-2.99702260,-0.00046880
-4.40000000,-2.89746900,-0.00046819
-4.40000000,-2.79739560,-0.00046746
-4.40000000,-2.69732310,-0.00046640
-4.40000000,-2.59718480,-0.00046494
-4.40000000,-2.49711500,-0.00046319
-4.40000000,-2.39704280,-0.00046074
-4.40000000,-2.29750610,-0.00045767
-4.40000000,-2.19745580,-0.00045348
-4.40000000,-2.09746650,-0.00044842
-4.40000000,-1.99743180,-0.00044213
-4.40000000,-1.89739170,-0.00043468
-4.40000000,-1.79737650,-0.00042576
-4.40000000,-1.69787600,-0.00041563
-4.40000000,-1.59785050,-0.00040388
-4.40000000,-1.49780650,-0.00039074
-4.40000000,-1.39780300,-0.00037609
-4.40000000,-1.29782910,-0.00035985
-4.40000000,-1.19785780,-0.00034214
-4.40000000,-1.09840020,-0.00032278
-4.40000000,-0.99837046,-0.00030189
-4.40000000,-0.89841761,-0.00027929
-4.40000000,-0.79848249,-0.00025507
-4.40000000,-0.69856863,-0.00022916
-4.40000000,-0.59864025,-0.00020159
-4.40000000,-0.49919269,-0.00017249
-4.40000000,-0.39929460,-0.00014149
-4.40000000,-0.29939856,-0.00010887
-4.40000000,-0.19952348,-0.00007435
-4.40000000,-0.09965811,-0.00003806
-4.40000000,-0.00015881,-0.00000009
-4.30000000,-4.99723530,-0.00044845
-4.30000000,-4.89715420,-0.00044831
-4.30000000,-4.79707170,-0.00044813
-4.30000000,-4.69746390,-0.00044794
-4.30000000,-4.59738260,-0.00044778
-4.30000000,-4.49730140,-0.00044763
-4.30000000,-4.39723320,-0.00044745
-4.30000000,-4.29713230,-0.00044725
-4.30000000,-4.19718610,-0.00044706
-4.30000000,-4.09761820,-0.00044683
-4.30000000,-3.99753840,-0.00044670
-4.30000000,-3.89748310,-0.00044655
-4.30000000,-3.79739520,-0.00044626
-4.30000000,-3.69726340,-0.00044601
-4.30000000,-3.59719140,-0.00044578
-4.30000000,-3.49762740,-0.00044554
-4.30000000,-3.39755270,-0.00044527
-4.30000000,-3.29746490,-0.00044493
-4.30000000,-3.19739260,-0.00044460
-4.30000000,-3.09724780,-0.00044422
-4.30000000,-2.99717050,-0.00044380
-4.30000000,-2.89761560,-0.00044326
-4.30000000,-2.79753820,-0.00044261
-4.30000000,-2.69746710,-0.00044188
-4.30000000,-2.59732880,-0.00044070
-4.30000000,-2.49725110,-0.00043934
-4.30000000,-2.39717900,-0.00043747
-4.30000000,-2.29764360,-0.00043496
-4.30000000,-2.19759070,-0.00043160
-4.30000000,-2.09759360,-0.00042730
-4.30000000,-1.99755240,-0.00042190
-4.30000000,-1.89750320,-0.00041535
-4.30000000,-1.79748670,-0.00040746
-4.30000000,-1.69797710,-0.00039828
-4.30000000,-1.59795040,-0.00038759
-4.30000000,-1.49789470,-0.00037555
-4.30000000,-1.39788600,-0.00036189
-4.30000000,-1.29790560,-0.00034679
-4.30000000,-1.19792780,-0.00033008
-4.30000000,-1.09846510,-0.00031184
-4.30000000,-0.99842817,-0.00029193
-4.30000000,-0.89847244,-0.00027032
-4.30000000,-0.79853235,-0.00024719
-4.30000000,-0.69860749,-0.00022231
-4.30000000,-0.59867885,-0.00019573
-4.30000000,-0.49921939,-0.00016764
-4.30000000,-0.39931632,-0.00013768
-4.30000000,-0.29941596,-0.00010594
-4.30000000,-0.19953722,-0.00007246
-4.30000000,-0.09966719,-0.00003709
-4.30000000,-0.00015995,-0.00000008
-4.20000000,-4.99738830,-0.00042351
-4.20000000,-4.89730330,-0.00042323
-4.20000000,-4.79722090,-0.00042317
-4.20000000,-4.69761440,-0.00042299
-4.20000000,-4.59753050,-0.00042284
-4.20000000,-4.49745050,-0.00042265
-4.20000000,-4.39738240,-0.00042248
-4.20000000,-4.29727500,-0.00042234
-4.20000000,-4.19732220,-0.00042217
-4.20000000,-4.09776470,-0.00042202
-4.20000000,-3.99769010,-0.00042178
-4.20000000,-3.89762440,-0.00042158
-4.20000000,-3.79753920,-0.00042137
-4.20000000,-3.69740350,-0.00042121
-4.20000000,-3.59733270,-0.00042097
-4.20000000,-3.49777130,-0.00042075
-4.20000000,-3.39770050,-0.00042049
-4.20000000,-3.29761280,-0.00042025
-4.20000000,-3.19753910,-0.00041996
-4.20000000,-3.09739050,-0.00041962
-4.20000000,-2.99730920,-0.00041925
-4.20000000,-2.89775820,-0.00041884
-4.20000000,-2.79768350,-0.00041828
-4.20000000,-2.69760710,-0.00041766
-4.20000000,-2.59746880,-0.00041683
-4.20000000,-2.49738990,-0.00041578
-4.20000000,-2.39731250,-0.00041426
-4.20000000,-2.29777460,-0.00041232
-4.20000000,-2.19771520,-0.00040963
-4.20000000,-2.09771940,-0.00040609
-4.20000000,-1.99767050,-0.00040156
-4.20000000,-1.89761990,-0.00039594
-4.20000000,-1.79759700,-0.00038899
-4.20000000,-1.69807830,-0.00038085
-4.20000000,-1.59804760,-0.00037119
-4.20000000,-1.49798930,-0.00036015
-4.20000000,-1.39797150,-0.00034760
-4.20000000,-1.29798600,-0.00033350
-4.20000000,-1.19799910,-0.00031789
-4.20000000,-1.09853380,-0.00030068
-4.20000000,-0.99848849,-0.00028187
-4.20000000,-0.89852687,-0.00026137
-4.20000000,-0.79857985,-0.00023916
-4.20000000,-0.69865015,-0.00021544
-4.20000000,-0.59871248,-0.00018988
-4.20000000,-0.49925210,-0.00016273
-4.20000000,-0.39934079,-0.00013377
-4.20000000,-0.29943690,-0.00010308
-4.20000000,-0.19954559,-0.00007050
-4.20000000,-0.09967056,-0.00003614
-4.20000000,-0.00015374,-0.00000006
-4.10000000,-4.99752840,-0.00039907
-4.10000000,-4.89744720,-0.00039895
-4.10000000,-4.79736350,-0.00039874
-4.10000000,-4.69775570,-0.00039860
-4.10000000,-4.59766660,-0.00039845
-4.10000000,-4.49759320,-0.00039835
-4.10000000,-4.39751950,-0.00039823
-4.10000000,-4.29742280,-0.00039801
-4.10000000,-4.19747140,-0.00039787
-4.10000000,-4.09790480,-0.00039768
-4.10000000,-3.99783660,-0.00039753
-4.10000000,-3.89776970,-0.00039733
-4.10000000,-3.79768440,-0.00039719
-4.10000000,-3.69754870,-0.00039698
-4.10000000,-3.59747540,-0.00039677
-4.10000000,-3.49791270,-0.00039658
-4.10000000,-3.39784050,-0.00039637
-4.10000000,-3.29775280,-0.00039613
-4.10000000,-3.19767530,-0.00039581
-4.10000000,-3.09753440,-0.00039559
-4.10000000,-2.99745710,-0.00039530
-4.10000000,-2.89789960,-0.00039488
-4.10000000,-2.79782480,-0.00039447
-4.10000000,-2.69774460,-0.00039396
-4.10000000,-2.59760370,-0.00039330
-4.10000000,-2.49752860,-0.00039247
-4.10000000,-2.39744740,-0.00039134
-4.10000000,-2.29790560,-0.00038986
-4.10000000,-2.19784750,-0.00038771
-4.10000000,-2.09784520,-0.00038489
-4.10000000,-1.99779110,-0.00038115
-4.10000000,-1.89773410,-0.00037639
-4.10000000,-1.79770070,-0.00037042
-4.10000000,-1.69818200,-0.00036322
-4.10000000,-1.59814750,-0.00035471
-4.10000000,-1.49807750,-0.00034461
-4.10000000,-1.39805200,-0.00033310
-4.10000000,-1.29806250,-0.00032011
-4.10000000,-1.19807040,-0.00030552
-4.10000000,-1.09859730,-0.00028948
-4.10000000,-0.99855261,-0.00027164
-4.10000000,-0.89857673,-0.00025221
-4.10000000,-0.79862526,-0.00023114
-4.10000000,-0.69869543,-0.00020837
-4.10000000,-0.59874507,-0.00018388
-4.10000000,-0.49928194,-0.00015776
-4.10000000,-0.39936435,-0.00012982
-4.10000000,-0.29945613,-0.00010010
-4.10000000,-0.19955907,-0.00006857
-4.10000000,-0.09967809,-0.00003520
-4.10000000,-0.00015989,-0.00000002
-4.00000000,-4.99766450,-0.00037527
-4.00000000,-4.89758990,-0.00037519
-4.00000000,-4.79750360,-0.00037498
-4.00000000,-4.69789580,-0.00037484
-4.00000000,-4.59781450,-0.00037473
-4.00000000,-4.49773190,-0.00037462
-4.00000000,-4.39766350,-0.00037442
-4.00000000,-4.29755640,-0.00037431
-4.00000000,-4.19760240,-0.00037414
-4.00000000,-4.09804620,-0.00037402
-4.00000000,-3.99797540,-0.00037383
-4.00000000,-3.89790970,-0.00037369
-4.00000000,-3.79782190,-0.00037353
-4.00000000,-3.69768880,-0.00037334
-4.00000000,-3.59761680,-0.00037313
-4.00000000,-3.49804630,-0.00037298
-4.00000000,-3.39797540,-0.00037279
-4.00000000,-3.29788510,-0.00037257
-4.00000000,-3.19781410,-0.00037235
-4.00000000,-3.09766930,-0.00037204
-4.00000000,-2.99758550,-0.00037184
-4.00000000,-2.89803570,-0.00037157
-4.00000000,-2.79796100,-0.00037116
-4.00000000,-2.69787950,-0.00037079
-4.00000000,-2.59774380,-0.00037028
-4.00000000,-2.49766220,-0.00036960
-4.00000000,-2.39757710,-0.00036872
-4.00000000,-2.29803270,-0.00036758
-4.00000000,-2.19796940,-0.00036601
-4.00000000,-2.09796970,-0.00036376
-4.00000000,-1.99790780,-0.00036078
-4.00000000,-1.89784690,-0.00035681
-4.00000000,-1.79780840,-0.00035174
-4.00000000,-1.69828710,-0.00034554
-4.00000000,-1.59824090,-0.00033788
-4.00000000,-1.49817090,-0.00032897
-4.00000000,-1.39814140,-0.00031856
-4.00000000,-1.29814290,-0.00030661
-4.00000000,-1.19814050,-0.00029304
-4.00000000,-1.09866350,-0.00027808
-4.00000000,-0.99860862,-0.00026136
-4.00000000,-0.89863091,-0.00024299
-4.00000000,-0.79867263,-0.00022294
-4.00000000,-0.69872919,-0.00020125
-4.00000000,-0.59878236,-0.00017786
