Vgs,	Vds,	Ids
-5.00000000,-4.99407360,-0.00098761
-5.00000000,-4.89400020,-0.00098719
-5.00000000,-4.79392300,-0.00098681
-5.00000000,-4.69431910,-0.00098643
-5.00000000,-4.59423390,-0.00098596
-5.00000000,-4.49415780,-0.00098550
-5.00000000,-4.39408580,-0.00098501
-5.00000000,-4.29398750,-0.00098445
-5.00000000,-4.19404250,-0.00098386
-5.00000000,-4.09448110,-0.00098321
-5.00000000,-3.99441170,-0.00098258
-5.00000000,-3.89435120,-0.00098176
-5.00000000,-3.79426860,-0.00098090
-5.00000000,-3.69413800,-0.00097996
-5.00000000,-3.59406730,-0.00097877
-5.00000000,-3.49450850,-0.00097737
-5.00000000,-3.39444800,-0.00097569
-5.00000000,-3.29436810,-0.00097349
-5.00000000,-3.19431000,-0.00097078
-5.00000000,-3.09418600,-0.00096730
-5.00000000,-2.99413070,-0.00096286
-5.00000000,-2.89460560,-0.00095733
-5.00000000,-2.79456580,-0.00095066
-5.00000000,-2.69452710,-0.00094245
-5.00000000,-2.59444590,-0.00093272
-5.00000000,-2.49442660,-0.00092137
-5.00000000,-2.39441800,-0.00090833
-5.00000000,-2.29495270,-0.00089354
-5.00000000,-2.19497370,-0.00087688
-5.00000000,-2.09506730,-0.00085837
-5.00000000,-1.99511440,-0.00083789
-5.00000000,-1.89516110,-0.00081553
-5.00000000,-1.79523280,-0.00079116
-5.00000000,-1.69582440,-0.00076498
-5.00000000,-1.59590390,-0.00073658
-5.00000000,-1.49595460,-0.00070618
-5.00000000,-1.39605610,-0.00067374
-5.00000000,-1.29618860,-0.00063933
-5.00000000,-1.19632230,-0.00060278
-5.00000000,-1.09698280,-0.00056437
-5.00000000,-0.99706778,-0.00052376
-5.00000000,-0.89723610,-0.00048104
-5.00000000,-0.79741706,-0.00043618
-5.00000000,-0.69762777,-0.00038923
-5.00000000,-0.59782855,-0.00034020
-5.00000000,-0.49850635,-0.00028916
-5.00000000,-0.39873990,-0.00023580
-5.00000000,-0.29898230,-0.00018019
-5.00000000,-0.19924554,-0.00012233
-5.00000000,-0.09951982,-0.00006228
-5.00000000,-0.00015819,-0.00000012
-4.90000000,-4.99433040,-0.00094536
-4.90000000,-4.89425180,-0.00094483
-4.90000000,-4.79416290,-0.00094441
-4.90000000,-4.69456680,-0.00094393
-4.90000000,-4.59448030,-0.00094354
-4.90000000,-4.49440030,-0.00094316
-4.90000000,-4.39433090,-0.00094260
-4.90000000,-4.29423260,-0.00094214
-4.90000000,-4.19428760,-0.00094159
-4.90000000,-4.09472490,-0.00094094
-4.90000000,-3.99465550,-0.00094035
-4.90000000,-3.89460020,-0.00093971
-4.90000000,-3.79450980,-0.00093891
-4.90000000,-3.69438190,-0.00093812
-4.90000000,-3.59431630,-0.00093715
-4.90000000,-3.49475230,-0.00093596
-4.90000000,-3.39468790,-0.00093456
-4.90000000,-3.29460150,-0.00093277
-4.90000000,-3.19454730,-0.00093056
-4.90000000,-3.09441290,-0.00092773
-4.90000000,-2.99435110,-0.00092411
-4.90000000,-2.89482340,-0.00091957
-4.90000000,-2.79478370,-0.00091388
-4.90000000,-2.69473980,-0.00090685
-4.90000000,-2.59464950,-0.00089835
-4.90000000,-2.49462500,-0.00088827
-4.90000000,-2.39460730,-0.00087658
-4.90000000,-2.29512770,-0.00086314
-4.90000000,-2.19514490,-0.00084788
-4.90000000,-2.09522810,-0.00083076
-4.90000000,-1.99527130,-0.00081173
-4.90000000,-1.89530770,-0.00079078
-4.90000000,-1.79537420,-0.00076783
-4.90000000,-1.69595920,-0.00074295
-4.90000000,-1.59602970,-0.00071609
-4.90000000,-1.49606870,-0.00068704
-4.90000000,-1.39616760,-0.00065601
-4.90000000,-1.29628970,-0.00062288
-4.90000000,-1.19641180,-0.00058769
-4.90000000,-1.09706710,-0.00055069
-4.90000000,-0.99714119,-0.00051138
-4.90000000,-0.89730127,-0.00047001
-4.90000000,-0.79747843,-0.00042636
-4.90000000,-0.69768325,-0.00038070
-4.90000000,-0.59787160,-0.00033288
-4.90000000,-0.49854181,-0.00028314
-4.90000000,-0.39877104,-0.00023101
-4.90000000,-0.29900311,-0.00017663
-4.90000000,-0.19925640,-0.00012003
-4.90000000,-0.09952438,-0.00006111
-4.90000000,-0.00016566,-0.00000007
-4.80000000,-4.99457030,-0.00090336
-4.80000000,-4.89450470,-0.00090284
-4.80000000,-4.79441580,-0.00090247
-4.80000000,-4.69480670,-0.00090208
-4.80000000,-4.59472800,-0.00090173
-4.80000000,-4.49464540,-0.00090125
-4.80000000,-4.39457340,-0.00090081
-4.80000000,-4.29447380,-0.00090030
-4.80000000,-4.19453270,-0.00089987
-4.80000000,-4.09496740,-0.00089934
-4.80000000,-3.99489930,-0.00089880
-4.80000000,-3.89484010,-0.00089820
-4.80000000,-3.79475490,-0.00089750
-4.80000000,-3.69462050,-0.00089676
-4.80000000,-3.59455100,-0.00089590
-4.80000000,-3.49498830,-0.00089496
-4.80000000,-3.39492780,-0.00089385
-4.80000000,-3.29484140,-0.00089243
-4.80000000,-3.19477430,-0.00089057
-4.80000000,-3.09464760,-0.00088833
-4.80000000,-2.99457940,-0.00088548
-4.80000000,-2.89504650,-0.00088165
-4.80000000,-2.79499640,-0.00087696
-4.80000000,-2.69494990,-0.00087100
-4.80000000,-2.59485050,-0.00086364
-4.80000000,-2.49481820,-0.00085489
-4.80000000,-2.39479280,-0.00084444
-4.80000000,-2.29531190,-0.00083248
-4.80000000,-2.19531220,-0.00081849
-4.80000000,-2.09539540,-0.00080276
-4.80000000,-1.99542300,-0.00078513
-4.80000000,-1.89545160,-0.00076552
-4.80000000,-1.79551160,-0.00074407
-4.80000000,-1.69608370,-0.00072068
-4.80000000,-1.59614900,-0.00069510
-4.80000000,-1.49618280,-0.00066764
-4.80000000,-1.39626490,-0.00063792
-4.80000000,-1.29638570,-0.00060625
-4.80000000,-1.19650770,-0.00057255
-4.80000000,-1.09714880,-0.00053673
-4.80000000,-0.99721761,-0.00049875
-4.80000000,-0.89737089,-0.00045871
-4.80000000,-0.79753758,-0.00041644
-4.80000000,-0.69773089,-0.00037208
-4.80000000,-0.59791661,-0.00032552
-4.80000000,-0.49858028,-0.00027708
-4.80000000,-0.39879905,-0.00022615
-4.80000000,-0.29902418,-0.00017302
-4.80000000,-0.19927184,-0.00011756
-4.80000000,-0.09953354,-0.00005990
-4.80000000,-0.00016045,-0.00000007
-4.70000000,-4.99481540,-0.00086212
-4.70000000,-4.89473810,-0.00086163
-4.70000000,-4.79465700,-0.00086131
-4.70000000,-4.69505050,-0.00086086
-4.70000000,-4.59496530,-0.00086049
-4.70000000,-4.49488280,-0.00086008
-4.70000000,-4.39481720,-0.00085969
-4.70000000,-4.29472150,-0.00085925
-4.70000000,-4.19477130,-0.00085883
-4.70000000,-4.09520870,-0.00085839
-4.70000000,-3.99513660,-0.00085788
-4.70000000,-3.89508130,-0.00085732
-4.70000000,-3.79499870,-0.00085674
-4.70000000,-3.69485910,-0.00085612
-4.70000000,-3.59479480,-0.00085537
-4.70000000,-3.49523470,-0.00085453
-4.70000000,-3.39516130,-0.00085352
-4.70000000,-3.29507480,-0.00085239
-4.70000000,-3.19501030,-0.00085103
-4.70000000,-3.09487850,-0.00084910
-4.70000000,-2.99480630,-0.00084685
-4.70000000,-2.89526440,-0.00084380
-4.70000000,-2.79520910,-0.00083987
-4.70000000,-2.69516130,-0.00083501
-4.70000000,-2.59505410,-0.00082879
-4.70000000,-2.49501800,-0.00082121
-4.70000000,-2.39498340,-0.00081209
-4.70000000,-2.29549210,-0.00080133
-4.70000000,-2.19548590,-0.00078886
-4.70000000,-2.09555230,-0.00077463
-4.70000000,-1.99557610,-0.00075844
-4.70000000,-1.89560210,-0.00074028
-4.70000000,-1.79565040,-0.00072022
-4.70000000,-1.69621730,-0.00069818
-4.70000000,-1.59626830,-0.00067411
-4.70000000,-1.49630210,-0.00064793
-4.70000000,-1.39637640,-0.00061968
-4.70000000,-1.29648810,-0.00058950
-4.70000000,-1.19659590,-0.00055703
-4.70000000,-1.09722920,-0.00052267
-4.70000000,-0.99728919,-0.00048607
-4.70000000,-0.89743631,-0.00044726
-4.70000000,-0.79759738,-0.00040643
-4.70000000,-0.69778349,-0.00036326
-4.70000000,-0.59795901,-0.00031807
-4.70000000,-0.49861457,-0.00027092
-4.70000000,-0.39882587,-0.00022130
-4.70000000,-0.29904838,-0.00016937
-4.70000000,-0.19928166,-0.00011522
-4.70000000,-0.09954011,-0.00005882
-4.70000000,-0.00016221,-0.00000012
-4.60000000,-4.99505400,-0.00082170
-4.60000000,-4.89497550,-0.00082134
-4.60000000,-4.79489560,-0.00082099
-4.60000000,-4.69528780,-0.00082054
-4.60000000,-4.59519870,-0.00082029
-4.60000000,-4.49512400,-0.00081991
-4.60000000,-4.39505970,-0.00081951
-4.60000000,-4.29496140,-0.00081913
-4.60000000,-4.19500740,-0.00081869
-4.60000000,-4.09544730,-0.00081821
-4.60000000,-3.99537780,-0.00081788
-4.60000000,-3.89531470,-0.00081735
-4.60000000,-3.79522430,-0.00081685
-4.60000000,-3.69509380,-0.00081626
-4.60000000,-3.59502440,-0.00081559
-4.60000000,-3.49546040,-0.00081493
-4.60000000,-3.39539600,-0.00081410
-4.60000000,-3.29530440,-0.00081307
-4.60000000,-3.19523850,-0.00081199
-4.60000000,-3.09510150,-0.00081048
-4.60000000,-2.99503200,-0.00080863
-4.60000000,-2.89549390,-0.00080628
-4.60000000,-2.79543210,-0.00080322
-4.60000000,-2.69537390,-0.00079913
-4.60000000,-2.59525770,-0.00079391
-4.60000000,-2.49520990,-0.00078747
-4.60000000,-2.39517660,-0.00077956
-4.60000000,-2.29567500,-0.00077020
-4.60000000,-2.19566620,-0.00075898
-4.60000000,-2.09572220,-0.00074601
-4.60000000,-1.99573430,-0.00073130
-4.60000000,-1.89574990,-0.00071456
-4.60000000,-1.79579700,-0.00069592
-4.60000000,-1.69635480,-0.00067534
-4.60000000,-1.59639540,-0.00065263
-4.60000000,-1.49641500,-0.00062798
-4.60000000,-1.39647890,-0.00060123
-4.60000000,-1.29658410,-0.00057229
-4.60000000,-1.19668670,-0.00054131
-4.60000000,-1.09731350,-0.00050836
-4.60000000,-0.99737058,-0.00047315
-4.60000000,-0.89750004,-0.00043571
-4.60000000,-0.79765548,-0.00039623
-4.60000000,-0.69783439,-0.00035451
-4.60000000,-0.59800062,-0.00031053
-4.60000000,-0.49864885,-0.00026471
-4.60000000,-0.39885584,-0.00021637
-4.60000000,-0.29906906,-0.00016568
-4.60000000,-0.19929788,-0.00011280
-4.60000000,-0.09954714,-0.00005757
-4.60000000,-0.00016146,-0.00000012
-4.50000000,-4.99528480,-0.00078197
-4.50000000,-4.89520760,-0.00078153
-4.50000000,-4.79512390,-0.00078128
-4.50000000,-4.69551740,-0.00078095
-4.50000000,-4.59543600,-0.00078062
-4.50000000,-4.49535740,-0.00078021
-4.50000000,-4.39528540,-0.00077984
-4.50000000,-4.29518060,-0.00077951
-4.50000000,-4.19523690,-0.00077917
-4.50000000,-4.09567810,-0.00077884
-4.50000000,-3.99560740,-0.00077835
-4.50000000,-3.89554560,-0.00077797
-4.50000000,-3.79545520,-0.00077750
-4.50000000,-3.69531950,-0.00077692
-4.50000000,-3.59525000,-0.00077642
-4.50000000,-3.49569640,-0.00077585
-4.50000000,-3.39562160,-0.00077509
-4.50000000,-3.29553520,-0.00077430
-4.50000000,-3.19547070,-0.00077336
-4.50000000,-3.09532590,-0.00077224
-4.50000000,-2.99525240,-0.00077072
-4.50000000,-2.89571050,-0.00076879
-4.50000000,-2.79564350,-0.00076632
-4.50000000,-2.69558270,-0.00076310
-4.50000000,-2.59546390,-0.00075891
-4.50000000,-2.49541350,-0.00075350
-4.50000000,-2.39536860,-0.00074675
-4.50000000,-2.29586300,-0.00073853
-4.50000000,-2.19584260,-0.00072878
-4.50000000,-2.09589600,-0.00071723
-4.50000000,-1.99589640,-0.00070380
-4.50000000,-1.89590160,-0.00068852
-4.50000000,-1.79593830,-0.00067134
-4.50000000,-1.69648830,-0.00065223
-4.50000000,-1.59652510,-0.00063108
-4.50000000,-1.49653560,-0.00060774
-4.50000000,-1.39659430,-0.00058247
-4.50000000,-1.29668650,-0.00055501
-4.50000000,-1.19677880,-0.00052546
-4.50000000,-1.09739910,-0.00049391
-4.50000000,-0.99744256,-0.00045999
-4.50000000,-0.89757018,-0.00042409
-4.50000000,-0.79771567,-0.00038591
-4.50000000,-0.69788530,-0.00034545
-4.50000000,-0.59804852,-0.00030299
-4.50000000,-0.49868981,-0.00025839
-4.50000000,-0.39888123,-0.00021127
-4.50000000,-0.29909026,-0.00016198
-4.50000000,-0.19931228,-0.00011032
-4.50000000,-0.09955139,-0.00005629
-4.50000000,-0.00016067,-0.00000007
-4.40000000,-4.99550920,-0.00074303
-4.40000000,-4.89543580,-0.00074266
-4.40000000,-4.79534690,-0.00074232
-4.40000000,-4.69574560,-0.00074206
-4.40000000,-4.59565910,-0.00074171
-4.40000000,-4.49558050,-0.00074145
-4.40000000,-4.39551490,-0.00074107
-4.40000000,-4.29540750,-0.00074082
-4.40000000,-4.19546520,-0.00074041
-4.40000000,-4.09589990,-0.00074008
-4.40000000,-3.99583170,-0.00073968
-4.40000000,-3.89577380,-0.00073926
-4.40000000,-3.79568600,-0.00073885
-4.40000000,-3.69555290,-0.00073842
-4.40000000,-3.59547830,-0.00073798
-4.40000000,-3.49591690,-0.00073735
-4.40000000,-3.39585250,-0.00073677
-4.40000000,-3.29575830,-0.00073611
-4.40000000,-3.19568720,-0.00073529
-4.40000000,-3.09554890,-0.00073440
-4.40000000,-2.99547030,-0.00073317
-4.40000000,-2.89592450,-0.00073164
-4.40000000,-2.79585620,-0.00072969
-4.40000000,-2.69578890,-0.00072719
-4.40000000,-2.59566880,-0.00072378
-4.40000000,-2.49561450,-0.00071938
-4.40000000,-2.39555400,-0.00071383
-4.40000000,-2.29604590,-0.00070683
-4.40000000,-2.19602020,-0.00069830
-4.40000000,-2.09606200,-0.00068807
-4.40000000,-1.99606240,-0.00067605
-4.40000000,-1.89605600,-0.00066220
-4.40000000,-1.79608100,-0.00064644
-4.40000000,-1.69662060,-0.00062878
-4.40000000,-1.59665090,-0.00060908
-4.40000000,-1.49665360,-0.00058729
-4.40000000,-1.39670580,-0.00056337
-4.40000000,-1.29678900,-0.00053741
-4.40000000,-1.19687090,-0.00050930
-4.40000000,-1.09748460,-0.00047922
-4.40000000,-0.99752146,-0.00044678
-4.40000000,-0.89764215,-0.00041221
-4.40000000,-0.79777940,-0.00037539
-4.40000000,-0.69793908,-0.00033648
-4.40000000,-0.59809052,-0.00029518
-4.40000000,-0.49872946,-0.00025191
-4.40000000,-0.39891564,-0.00020616
-4.40000000,-0.29910963,-0.00015818
-4.40000000,-0.19932445,-0.00010775
-4.40000000,-0.09955765,-0.00005503
-4.40000000,-0.00016219,-0.00000012
-4.30000000,-4.99573480,-0.00070488
-4.30000000,-4.89566020,-0.00070449
-4.30000000,-4.79558040,-0.00070422
-4.30000000,-4.69596870,-0.00070394
-4.30000000,-4.59588480,-0.00070362
-4.30000000,-4.49580610,-0.00070336
-4.30000000,-4.39573670,-0.00070307
-4.30000000,-4.29563580,-0.00070274
-4.30000000,-4.19568430,-0.00070245
-4.30000000,-4.09612550,-0.00070208
-4.30000000,-3.99605220,-0.00070171
-4.30000000,-3.89599300,-0.00070141
-4.30000000,-3.79590520,-0.00070101
-4.30000000,-3.69576950,-0.00070064
-4.30000000,-3.59569480,-0.00070020
-4.30000000,-3.49613730,-0.00069968
-4.30000000,-3.39606390,-0.00069913
-4.30000000,-3.29597880,-0.00069859
-4.30000000,-3.19590510,-0.00069792
-4.30000000,-3.09576550,-0.00069711
-4.30000000,-2.99568560,-0.00069622
-4.30000000,-2.89613590,-0.00069502
-4.30000000,-2.79606890,-0.00069350
-4.30000000,-2.69600160,-0.00069147
-4.30000000,-2.59587240,-0.00068885
-4.30000000,-2.49581420,-0.00068529
-4.30000000,-2.39575370,-0.00068075
-4.30000000,-2.29623520,-0.00067494
-4.30000000,-2.19620310,-0.00066759
-4.30000000,-2.09623450,-0.00065866
-4.30000000,-1.99622840,-0.00064811
-4.30000000,-1.89621420,-0.00063567
-4.30000000,-1.79623400,-0.00062134
-4.30000000,-1.69676330,-0.00060514
-4.30000000,-1.59678320,-0.00058690
-4.30000000,-1.49677810,-0.00056655
-4.30000000,-1.39682120,-0.00054414
-4.30000000,-1.29689400,-0.00051955
-4.30000000,-1.19696550,-0.00049300
-4.30000000,-1.09756890,-0.00046428
-4.30000000,-0.99759657,-0.00043335
-4.30000000,-0.89771098,-0.00040017
-4.30000000,-0.79783855,-0.00036479
-4.30000000,-0.69799247,-0.00032716
-4.30000000,-0.59813449,-0.00028731
-4.30000000,-0.49876845,-0.00024549
-4.30000000,-0.39894364,-0.00020102
-4.30000000,-0.29913174,-0.00015437
-4.30000000,-0.19934224,-0.00010520
-4.30000000,-0.09956910,-0.00005377
-4.30000000,-0.00016256,-0.00000006
-4.20000000,-4.99595530,-0.00066751
-4.20000000,-4.89588070,-0.00066718
-4.20000000,-4.79578780,-0.00066694
-4.20000000,-4.69618910,-0.00066663
-4.20000000,-4.59610260,-0.00066641
-4.20000000,-4.49602790,-0.00066612
-4.20000000,-4.39594930,-0.00066587
-4.20000000,-4.29585360,-0.00066553
-4.20000000,-4.19590480,-0.00066530
-4.20000000,-4.09634340,-0.00066500
-4.20000000,-3.99627390,-0.00066465
-4.20000000,-3.89621090,-0.00066430
-4.20000000,-3.79612040,-0.00066399
-4.20000000,-3.69598860,-0.00066363
-4.20000000,-3.59591530,-0.00066313
-4.20000000,-3.49635520,-0.00066284
-4.20000000,-3.39628560,-0.00066233
-4.20000000,-3.29619790,-0.00066186
-4.20000000,-3.19612040,-0.00066120
-4.20000000,-3.09598080,-0.00066060
-4.20000000,-2.99590210,-0.00065977
-4.20000000,-2.89635110,-0.00065889
-4.20000000,-2.79628290,-0.00065764
-4.20000000,-2.69620910,-0.00065619
-4.20000000,-2.59607860,-0.00065411
-4.20000000,-2.49601260,-0.00065124
-4.20000000,-2.39594960,-0.00064766
-4.20000000,-2.29641940,-0.00064296
-4.20000000,-2.19638460,-0.00063673
-4.20000000,-2.09640830,-0.00062916
-4.20000000,-1.99639180,-0.00061985
-4.20000000,-1.89637240,-0.00060882
-4.20000000,-1.79638050,-0.00059588
-4.20000000,-1.69690590,-0.00058119
-4.20000000,-1.59691550,-0.00056440
-4.20000000,-1.49690260,-0.00054553
-4.20000000,-1.39693150,-0.00052465
-4.20000000,-1.29700040,-0.00050161
-4.20000000,-1.19706670,-0.00047644
-4.20000000,-1.09766100,-0.00044919
-4.20000000,-0.99767836,-0.00041969
-4.20000000,-0.89778322,-0.00038791
-4.20000000,-0.79790057,-0.00035400
-4.20000000,-0.69804573,-0.00031779
-4.20000000,-0.59818160,-0.00027937
-4.20000000,-0.49880418,-0.00023880
-4.20000000,-0.39897453,-0.00019576
-4.20000000,-0.29915464,-0.00015040
-4.20000000,-0.19935572,-0.00010262
-4.20000000,-0.09957451,-0.00005251
-4.20000000,-0.00016119,-0.00000009
-4.10000000,-4.99617060,-0.00063103
-4.10000000,-4.89608810,-0.00063070
-4.10000000,-4.79600310,-0.00063044
-4.10000000,-4.69639790,-0.00063023
-4.10000000,-4.59631790,-0.00062993
-4.10000000,-4.49623540,-0.00062969
-4.10000000,-4.39616200,-0.00062945
-4.10000000,-4.29606370,-0.00062914
-4.10000000,-4.19611360,-0.00062898
-4.10000000,-4.09655480,-0.00062864
-4.10000000,-3.99648270,-0.00062830
-4.10000000,-3.89641970,-0.00062803
-4.10000000,-3.79633310,-0.00062775
-4.10000000,-3.69620130,-0.00062738
-4.10000000,-3.59613060,-0.00062702
-4.10000000,-3.49656140,-0.00062667
-4.10000000,-3.39649440,-0.00062628
-4.10000000,-3.29640930,-0.00062577
-4.10000000,-3.19633310,-0.00062533
-4.10000000,-3.09618440,-0.00062470
-4.10000000,-2.99610580,-0.00062415
-4.10000000,-2.89656120,-0.00062336
-4.10000000,-2.79648650,-0.00062237
-4.10000000,-2.69641010,-0.00062126
-4.10000000,-2.59627830,-0.00061967
-4.10000000,-2.49620590,-0.00061749
-4.10000000,-2.39614020,-0.00061463
-4.10000000,-2.29660740,-0.00061084
-4.10000000,-2.19656620,-0.00060586
-4.10000000,-2.09658850,-0.00059939
-4.10000000,-1.99655780,-0.00059140
-4.10000000,-1.89653060,-0.00058180
-4.10000000,-1.79652970,-0.00057028
-4.10000000,-1.69704470,-0.00055697
-4.10000000,-1.59704390,-0.00054163
-4.10000000,-1.49702190,-0.00052430
-4.10000000,-1.39704950,-0.00050490
-4.10000000,-1.29710410,-0.00048333
-4.10000000,-1.19716270,-0.00045964
-4.10000000,-1.09775050,-0.00043395
-4.10000000,-0.99776250,-0.00040585
-4.10000000,-0.89785440,-0.00037557
-4.10000000,-0.79797032,-0.00034310
-4.10000000,-0.69810265,-0.00030830
-4.10000000,-0.59823381,-0.00027125
-4.10000000,-0.49884095,-0.00023215
-4.10000000,-0.39900436,-0.00019046
-4.10000000,-0.29918225,-0.00014647
-4.10000000,-0.19937129,-0.00010005
-4.10000000,-0.09958315,-0.00005122
-4.10000000,-0.00016487,-0.00000006
-4.00000000,-4.99637940,-0.00059539
-4.00000000,-4.89629950,-0.00059506
-4.00000000,-4.79621320,-0.00059487
-4.00000000,-4.69661060,-0.00059463
-4.00000000,-4.59652800,-0.00059436
-4.00000000,-4.49644420,-0.00059410
-4.00000000,-4.39637470,-0.00059390
-4.00000000,-4.29627510,-0.00059362
-4.00000000,-4.19632240,-0.00059338
-4.00000000,-4.09676230,-0.00059315
-4.00000000,-3.99669020,-0.00059288
-4.00000000,-3.89662710,-0.00059260
-4.00000000,-3.79654060,-0.00059230
-4.00000000,-3.69640490,-0.00059202
-4.00000000,-3.59633160,-0.00059171
-4.00000000,-3.49677280,-0.00059136
-4.00000000,-3.39670320,-0.00059102
-4.00000000,-3.29661420,-0.00059063
-4.00000000,-3.19654060,-0.00059020
-4.00000000,-3.09640230,-0.00058975
-4.00000000,-2.99631580,-0.00058919
-4.00000000,-2.89676350,-0.00058857
-4.00000000,-2.79669140,-0.00058781
-4.00000000,-2.69661630,-0.00058692
-4.00000000,-2.59647930,-0.00058567
-4.00000000,-2.49640820,-0.00058404
-4.00000000,-2.39632820,-0.00058184
-4.00000000,-2.29679550,-0.00057884
-4.00000000,-2.19673870,-0.00057481
-4.00000000,-2.09675970,-0.00056950
-4.00000000,-1.99672250,-0.00056292
-4.00000000,-1.89669010,-0.00055450
-4.00000000,-1.79667750,-0.00054442
-4.00000000,-1.69718470,-0.00053254
-4.00000000,-1.59717740,-0.00051866
-4.00000000,-1.49714900,-0.00050275
-4.00000000,-1.39716490,-0.00048487
-4.00000000,-1.29721050,-0.00046490
-4.00000000,-1.19726120,-0.00044268
-4.00000000,-1.09784000,-0.00041845
-4.00000000,-0.99784075,-0.00039192
-4.00000000,-0.89792768,-0.00036305
-4.00000000,-0.79803117,-0.00033198
-4.00000000,-0.69815748,-0.00029864
-4.00000000,-0.59827778,-0.00026313
