Vgs,	Vds,	Ids
-5.00000000,-4.99478680,-0.00086628
-5.00000000,-4.89471090,-0.00086603
-5.00000000,-4.79462850,-0.00086574
-5.00000000,-4.69502070,-0.00086544
-5.00000000,-4.59493680,-0.00086520
-5.00000000,-4.49486070,-0.00086486
-5.00000000,-4.39479000,-0.00086445
-5.00000000,-4.29469040,-0.00086414
-5.00000000,-4.19474020,-0.00086372
-5.00000000,-4.09517750,-0.00086327
-5.00000000,-3.99510680,-0.00086274
-5.00000000,-3.89504370,-0.00086226
-5.00000000,-3.79495980,-0.00086174
-5.00000000,-3.69483440,-0.00086107
-5.00000000,-3.59475980,-0.00086023
-5.00000000,-3.49519970,-0.00085939
-5.00000000,-3.39513270,-0.00085825
-5.00000000,-3.29505150,-0.00085687
-5.00000000,-3.19499080,-0.00085517
-5.00000000,-3.09485380,-0.00085292
-5.00000000,-2.99478690,-0.00085014
-5.00000000,-2.89525400,-0.00084633
-5.00000000,-2.79520000,-0.00084166
-5.00000000,-2.69516000,-0.00083584
-5.00000000,-2.59506060,-0.00082869
-5.00000000,-2.49501930,-0.00082021
-5.00000000,-2.39499770,-0.00081018
-5.00000000,-2.29550900,-0.00079864
-5.00000000,-2.19551830,-0.00078527
-5.00000000,-2.09558350,-0.00077028
-5.00000000,-1.99561240,-0.00075350
-5.00000000,-1.89563450,-0.00073480
-5.00000000,-1.79568670,-0.00071427
-5.00000000,-1.69625490,-0.00069195
-5.00000000,-1.59631110,-0.00066774
-5.00000000,-1.49633840,-0.00064127
-5.00000000,-1.39641530,-0.00061290
-5.00000000,-1.29652310,-0.00058268
-5.00000000,-1.19663350,-0.00055035
-5.00000000,-1.09726940,-0.00051617
-5.00000000,-0.99732845,-0.00047977
-5.00000000,-0.89746916,-0.00044133
-5.00000000,-0.79763402,-0.00040077
-5.00000000,-0.69781241,-0.00035826
-5.00000000,-0.59798950,-0.00031357
-5.00000000,-0.49863812,-0.00026691
-5.00000000,-0.39884825,-0.00021794
-5.00000000,-0.29906291,-0.00016679
-5.00000000,-0.19929867,-0.00011342
-5.00000000,-0.09954782,-0.00005778
-5.00000000,-0.00015914,-0.00000007
-4.90000000,-4.99502160,-0.00082677
-4.90000000,-4.89494690,-0.00082635
-4.90000000,-4.79486320,-0.00082603
-4.90000000,-4.69525280,-0.00082575
-4.90000000,-4.59516760,-0.00082543
-4.90000000,-4.49509410,-0.00082513
-4.90000000,-4.39502600,-0.00082477
-4.90000000,-4.29492120,-0.00082443
-4.90000000,-4.19497240,-0.00082409
-4.90000000,-4.09540970,-0.00082364
-4.90000000,-3.99533500,-0.00082322
-4.90000000,-3.89528100,-0.00082278
-4.90000000,-3.79519190,-0.00082224
-4.90000000,-3.69505880,-0.00082166
-4.90000000,-3.59499060,-0.00082098
-4.90000000,-3.49542670,-0.00082024
-4.90000000,-3.39535840,-0.00081935
-4.90000000,-3.29527720,-0.00081818
-4.90000000,-3.19520480,-0.00081685
-4.90000000,-3.09507430,-0.00081512
-4.90000000,-2.99500340,-0.00081276
-4.90000000,-2.89546670,-0.00080980
-4.90000000,-2.79541400,-0.00080589
-4.90000000,-2.69535840,-0.00080110
-4.90000000,-2.59525770,-0.00079504
-4.90000000,-2.49521120,-0.00078766
-4.90000000,-2.39517920,-0.00077879
-4.90000000,-2.29568410,-0.00076849
-4.90000000,-2.19568560,-0.00075652
-4.90000000,-2.09574820,-0.00074281
-4.90000000,-1.99576280,-0.00072736
-4.90000000,-1.89577970,-0.00071008
-4.90000000,-1.79582160,-0.00069089
-4.90000000,-1.69638460,-0.00066992
-4.90000000,-1.59642920,-0.00064701
-4.90000000,-1.49645390,-0.00062198
-4.90000000,-1.39652300,-0.00059508
-4.90000000,-1.29662560,-0.00056618
-4.90000000,-1.19672300,-0.00053516
-4.90000000,-1.09734980,-0.00050229
-4.90000000,-0.99740395,-0.00046727
-4.90000000,-0.89753694,-0.00043016
-4.90000000,-0.79768832,-0.00039094
-4.90000000,-0.69786331,-0.00034968
-4.90000000,-0.59803059,-0.00030624
-4.90000000,-0.49867842,-0.00026086
-4.90000000,-0.39887364,-0.00021313
-4.90000000,-0.29908280,-0.00016324
-4.90000000,-0.19931175,-0.00011108
-4.90000000,-0.09955266,-0.00005660
-4.90000000,-0.00016125,-0.00000007
-4.80000000,-4.99525240,-0.00078750
-4.80000000,-4.89517260,-0.00078708
-4.80000000,-4.79509140,-0.00078685
-4.80000000,-4.69548500,-0.00078656
-4.80000000,-4.59540100,-0.00078623
-4.80000000,-4.49532240,-0.00078591
-4.80000000,-4.39525030,-0.00078568
-4.80000000,-4.29515330,-0.00078527
-4.80000000,-4.19520190,-0.00078495
-4.80000000,-4.09564310,-0.00078455
-4.80000000,-3.99556970,-0.00078422
-4.80000000,-3.89550670,-0.00078383
-4.80000000,-3.79541760,-0.00078342
-4.80000000,-3.69528960,-0.00078278
-4.80000000,-3.59521500,-0.00078232
-4.80000000,-3.49565620,-0.00078168
-4.80000000,-3.39559180,-0.00078093
-4.80000000,-3.29550540,-0.00078007
-4.80000000,-3.19543690,-0.00077893
-4.80000000,-3.09529610,-0.00077744
-4.80000000,-2.99522520,-0.00077566
-4.80000000,-2.89568200,-0.00077332
-4.80000000,-2.79562540,-0.00077023
-4.80000000,-2.69556720,-0.00076620
-4.80000000,-2.59545610,-0.00076116
-4.80000000,-2.49541090,-0.00075487
-4.80000000,-2.39536470,-0.00074724
-4.80000000,-2.29586820,-0.00073819
-4.80000000,-2.19585550,-0.00072741
-4.80000000,-2.09591160,-0.00071501
-4.80000000,-1.99592100,-0.00070086
-4.80000000,-1.89592890,-0.00068494
-4.80000000,-1.79596550,-0.00066717
-4.80000000,-1.69651690,-0.00064763
-4.80000000,-1.59655750,-0.00062609
-4.80000000,-1.49656800,-0.00060247
-4.80000000,-1.39662670,-0.00057698
-4.80000000,-1.29672290,-0.00054933
-4.80000000,-1.19682160,-0.00051982
-4.80000000,-1.09743410,-0.00048833
-4.80000000,-0.99747841,-0.00045462
-4.80000000,-0.89760185,-0.00041883
-4.80000000,-0.79775022,-0.00038095
-4.80000000,-0.69791736,-0.00034098
-4.80000000,-0.59807338,-0.00029887
-4.80000000,-0.49871415,-0.00025473
-4.80000000,-0.39890256,-0.00020821
-4.80000000,-0.29910347,-0.00015956
-4.80000000,-0.19932471,-0.00010865
-4.80000000,-0.09956122,-0.00005544
-4.80000000,-0.00015552,-0.00000010
-4.70000000,-4.99547810,-0.00074898
-4.70000000,-4.89539820,-0.00074864
-4.70000000,-4.79531710,-0.00074834
-4.70000000,-4.69570540,-0.00074797
-4.70000000,-4.59562280,-0.00074777
-4.70000000,-4.49554800,-0.00074745
-4.70000000,-4.39547210,-0.00074718
-4.70000000,-4.29537380,-0.00074689
-4.70000000,-4.19542500,-0.00074651
-4.70000000,-4.09586490,-0.00074627
-4.70000000,-3.99579280,-0.00074590
-4.70000000,-3.89572840,-0.00074557
-4.70000000,-3.79564320,-0.00074514
-4.70000000,-3.69551270,-0.00074467
-4.70000000,-3.59543930,-0.00074421
-4.70000000,-3.49588050,-0.00074368
-4.70000000,-3.39580580,-0.00074305
-4.70000000,-3.29571940,-0.00074234
-4.70000000,-3.19564960,-0.00074143
-4.70000000,-3.09551390,-0.00074029
-4.70000000,-2.99543660,-0.00073889
-4.70000000,-2.89589330,-0.00073699
-4.70000000,-2.79583030,-0.00073456
-4.70000000,-2.69576690,-0.00073134
-4.70000000,-2.59564810,-0.00072720
-4.70000000,-2.49559630,-0.00072198
-4.70000000,-2.39554880,-0.00071544
-4.70000000,-2.29604590,-0.00070754
-4.70000000,-2.19602410,-0.00069809
-4.70000000,-2.09606850,-0.00068707
-4.70000000,-1.99607660,-0.00067418
-4.70000000,-1.89607410,-0.00065965
-4.70000000,-1.79610170,-0.00064318
-4.70000000,-1.69664660,-0.00062509
-4.70000000,-1.59667940,-0.00060489
-4.70000000,-1.49668340,-0.00058274
-4.70000000,-1.39673700,-0.00055859
-4.70000000,-1.29682400,-0.00053245
-4.70000000,-1.19690330,-0.00050426
-4.70000000,-1.09751970,-0.00047412
-4.70000000,-0.99755182,-0.00044184
-4.70000000,-0.89767173,-0.00040737
-4.70000000,-0.79780897,-0.00037084
-4.70000000,-0.69796446,-0.00033214
-4.70000000,-0.59811905,-0.00029127
-4.70000000,-0.49874843,-0.00024853
-4.70000000,-0.39893187,-0.00020322
-4.70000000,-0.29912768,-0.00015589
-4.70000000,-0.19933989,-0.00010622
-4.70000000,-0.09957042,-0.00005420
-4.70000000,-0.00015688,-0.00000010
-4.60000000,-4.99569720,-0.00071115
-4.60000000,-4.89561870,-0.00071079
-4.60000000,-4.79553630,-0.00071056
-4.60000000,-4.69592590,-0.00071031
-4.60000000,-4.59584840,-0.00071005
-4.60000000,-4.49576720,-0.00070981
-4.60000000,-4.39569650,-0.00070953
-4.60000000,-4.29559950,-0.00070928
-4.60000000,-4.19564800,-0.00070896
-4.60000000,-4.09608530,-0.00070871
-4.60000000,-3.99601200,-0.00070836
-4.60000000,-3.89595150,-0.00070809
-4.60000000,-3.79586370,-0.00070762
-4.60000000,-3.69573060,-0.00070728
-4.60000000,-3.59565980,-0.00070690
-4.60000000,-3.49609450,-0.00070639
-4.60000000,-3.39602500,-0.00070586
-4.60000000,-3.29593850,-0.00070527
-4.60000000,-3.19586880,-0.00070455
-4.60000000,-3.09572660,-0.00070368
-4.60000000,-2.99565060,-0.00070256
-4.60000000,-2.89610470,-0.00070107
-4.60000000,-2.79603260,-0.00069912
-4.60000000,-2.69597180,-0.00069662
-4.60000000,-2.59584650,-0.00069331
-4.60000000,-2.49579350,-0.00068901
-4.60000000,-2.39573430,-0.00068351
-4.60000000,-2.29622360,-0.00067678
-4.60000000,-2.19619790,-0.00066852
-4.60000000,-2.09623450,-0.00065872
-4.60000000,-1.99622970,-0.00064729
-4.60000000,-1.89622840,-0.00063404
-4.60000000,-1.79624700,-0.00061904
-4.60000000,-1.69678140,-0.00060223
-4.60000000,-1.59680140,-0.00058351
-4.60000000,-1.49680400,-0.00056272
-4.60000000,-1.39684330,-0.00054001
-4.60000000,-1.29692260,-0.00051530
-4.60000000,-1.19699930,-0.00048851
-4.60000000,-1.09760010,-0.00045974
-4.60000000,-0.99762497,-0.00042876
-4.60000000,-0.89773833,-0.00039573
-4.60000000,-0.79786930,-0.00036055
-4.60000000,-0.69802256,-0.00032321
-4.60000000,-0.59816236,-0.00028370
-4.60000000,-0.49878376,-0.00024219
-4.60000000,-0.39896144,-0.00019834
-4.60000000,-0.29914823,-0.00015222
-4.60000000,-0.19935376,-0.00010371
-4.60000000,-0.09957711,-0.00005305
-4.60000000,-0.00015913,-0.00000009
-4.50000000,-4.99591510,-0.00067420
-4.50000000,-4.89584040,-0.00067384
-4.50000000,-4.79575280,-0.00067360
-4.50000000,-4.69614250,-0.00067339
-4.50000000,-4.59605980,-0.00067315
-4.50000000,-4.49598120,-0.00067292
-4.50000000,-4.39591690,-0.00067272
-4.50000000,-4.29581340,-0.00067240
-4.50000000,-4.19586590,-0.00067213
-4.50000000,-4.09629800,-0.00067190
-4.50000000,-3.99622470,-0.00067157
-4.50000000,-3.89616680,-0.00067131
-4.50000000,-3.79608020,-0.00067096
-4.50000000,-3.69594970,-0.00067063
-4.50000000,-3.59587380,-0.00067028
-4.50000000,-3.49631240,-0.00066989
-4.50000000,-3.39624020,-0.00066946
-4.50000000,-3.29615380,-0.00066893
-4.50000000,-3.19608280,-0.00066829
-4.50000000,-3.09593930,-0.00066758
-4.50000000,-2.99586190,-0.00066671
-4.50000000,-2.89631480,-0.00066557
-4.50000000,-2.79624140,-0.00066415
-4.50000000,-2.69617670,-0.00066212
-4.50000000,-2.59604750,-0.00065952
-4.50000000,-2.49597760,-0.00065604
-4.50000000,-2.39592490,-0.00065155
-4.50000000,-2.29639860,-0.00064584
-4.50000000,-2.19637300,-0.00063881
-4.50000000,-2.09640440,-0.00063022
-4.50000000,-1.99638790,-0.00062010
-4.50000000,-1.89637500,-0.00060821
-4.50000000,-1.79638050,-0.00059459
-4.50000000,-1.69691630,-0.00057922
-4.50000000,-1.59692970,-0.00056185
-4.50000000,-1.49691680,-0.00054247
-4.50000000,-1.39695220,-0.00052119
-4.50000000,-1.29701850,-0.00049793
-4.50000000,-1.19709260,-0.00047251
-4.50000000,-1.09768440,-0.00044522
-4.50000000,-0.99770139,-0.00041565
-4.50000000,-0.89780389,-0.00038390
-4.50000000,-0.79792714,-0.00035014
-4.50000000,-0.69807046,-0.00031416
-4.50000000,-0.59820672,-0.00027601
-4.50000000,-0.49882302,-0.00023583
-4.50000000,-0.39899010,-0.00019319
-4.50000000,-0.29916903,-0.00014839
-4.50000000,-0.19937012,-0.00010124
-4.50000000,-0.09958182,-0.00005175
-4.50000000,-0.00015925,-0.00000001
-4.40000000,-4.99613170,-0.00063805
-4.40000000,-4.89604660,-0.00063776
-4.40000000,-4.79596160,-0.00063752
-4.40000000,-4.69635510,-0.00063733
-4.40000000,-4.59627120,-0.00063704
-4.40000000,-4.49619520,-0.00063685
-4.40000000,-4.39612180,-0.00063660
-4.40000000,-4.29602220,-0.00063638
-4.40000000,-4.19607080,-0.00063617
-4.40000000,-4.09651070,-0.00063595
-4.40000000,-3.99643600,-0.00063565
-4.40000000,-3.89637940,-0.00063534
-4.40000000,-3.79629160,-0.00063504
-4.40000000,-3.69615460,-0.00063474
-4.40000000,-3.59608520,-0.00063444
-4.40000000,-3.49652120,-0.00063407
-4.40000000,-3.39645160,-0.00063367
-4.40000000,-3.29636390,-0.00063325
-4.40000000,-3.19628900,-0.00063270
-4.40000000,-3.09614810,-0.00063219
-4.40000000,-2.99606940,-0.00063146
-4.40000000,-2.89651970,-0.00063060
-4.40000000,-2.79644760,-0.00062952
-4.40000000,-2.69637120,-0.00062794
-4.40000000,-2.59624330,-0.00062589
-4.40000000,-2.49617860,-0.00062316
-4.40000000,-2.39611430,-0.00061957
-4.40000000,-2.29658410,-0.00061488
-4.40000000,-2.19655190,-0.00060894
-4.40000000,-2.09657550,-0.00060159
-4.40000000,-1.99655000,-0.00059273
-4.40000000,-1.89652800,-0.00058214
-4.40000000,-1.79653620,-0.00056993
-4.40000000,-1.69705380,-0.00055593
-4.40000000,-1.59705680,-0.00053992
-4.40000000,-1.49703620,-0.00052205
-4.40000000,-1.39706120,-0.00050220
-4.40000000,-1.29712880,-0.00048027
-4.40000000,-1.19718600,-0.00045630
-4.40000000,-1.09777640,-0.00043043
-4.40000000,-0.99778226,-0.00040218
-4.40000000,-0.89787508,-0.00037196
-4.40000000,-0.79799126,-0.00033961
-4.40000000,-0.69812751,-0.00030498
-4.40000000,-0.59825213,-0.00026819
-4.40000000,-0.49886110,-0.00022936
-4.40000000,-0.39902190,-0.00018808
-4.40000000,-0.29919704,-0.00014457
-4.40000000,-0.19938451,-0.00009874
-4.40000000,-0.09959040,-0.00005049
-4.40000000,-0.00015880,-0.00000006
-4.30000000,-4.99633660,-0.00060264
-4.30000000,-4.89625670,-0.00060242
-4.30000000,-4.79617170,-0.00060225
-4.30000000,-4.69656650,-0.00060197
-4.30000000,-4.59648000,-0.00060176
-4.30000000,-4.49639750,-0.00060161
-4.30000000,-4.39632930,-0.00060139
-4.30000000,-4.29622580,-0.00060115
-4.30000000,-4.19628350,-0.00060091
-4.30000000,-4.09671690,-0.00060074
-4.30000000,-3.99664090,-0.00060044
-4.30000000,-3.89658440,-0.00060024
-4.30000000,-3.79649390,-0.00059994
-4.30000000,-3.69635820,-0.00059969
-4.30000000,-3.59629010,-0.00059939
-4.30000000,-3.49672090,-0.00059910
-4.30000000,-3.39665390,-0.00059875
-4.30000000,-3.29656750,-0.00059840
-4.30000000,-3.19649390,-0.00059797
-4.30000000,-3.09634780,-0.00059750
-4.30000000,-2.99626790,-0.00059686
-4.30000000,-2.89671940,-0.00059617
-4.30000000,-2.79664470,-0.00059537
-4.30000000,-2.69657090,-0.00059416
-4.30000000,-2.59644170,-0.00059260
-4.30000000,-2.49636670,-0.00059050
-4.30000000,-2.39630100,-0.00058768
-4.30000000,-2.29676690,-0.00058390
-4.30000000,-2.19672440,-0.00057905
-4.30000000,-2.09674020,-0.00057279
-4.30000000,-1.99671470,-0.00056514
-4.30000000,-1.89668490,-0.00055595
-4.30000000,-1.79667750,-0.00054500
-4.30000000,-1.69718600,-0.00053234
-4.30000000,-1.59718650,-0.00051782
-4.30000000,-1.49715940,-0.00050129
-4.30000000,-1.39717790,-0.00048289
-4.30000000,-1.29722860,-0.00046243
-4.30000000,-1.19728070,-0.00043994
-4.30000000,-1.09785940,-0.00041545
-4.30000000,-0.99786038,-0.00038873
-4.30000000,-0.89794927,-0.00035991
-4.30000000,-0.79805263,-0.00032889
-4.30000000,-0.69818051,-0.00029569
-4.30000000,-0.59829505,-0.00026026
-4.30000000,-0.49890193,-0.00022276
-4.30000000,-0.39905278,-0.00018288
-4.30000000,-0.29921496,-0.00014069
-4.30000000,-0.19939445,-0.00009613
-4.30000000,-0.09959481,-0.00004917
-4.30000000,-0.00015518,-0.00000006
-4.20000000,-4.99653630,-0.00056818
-4.20000000,-4.89645520,-0.00056793
-4.20000000,-4.79637140,-0.00056773
-4.20000000,-4.69676360,-0.00056754
-4.20000000,-4.59667970,-0.00056735
-4.20000000,-4.49660370,-0.00056714
-4.20000000,-4.39653290,-0.00056697
-4.20000000,-4.29643070,-0.00056678
-4.20000000,-4.19648190,-0.00056661
-4.20000000,-4.09692310,-0.00056631
-4.20000000,-3.99684580,-0.00056611
-4.20000000,-3.89678150,-0.00056589
-4.20000000,-3.79668850,-0.00056574
-4.20000000,-3.69656830,-0.00056545
-4.20000000,-3.59649240,-0.00056520
-4.20000000,-3.49692450,-0.00056493
-4.20000000,-3.39685750,-0.00056457
-4.20000000,-3.29676980,-0.00056437
-4.20000000,-3.19669620,-0.00056393
-4.20000000,-3.09655270,-0.00056357
-4.20000000,-2.99646630,-0.00056310
-4.20000000,-2.89692170,-0.00056251
-4.20000000,-2.79684700,-0.00056180
-4.20000000,-2.69676680,-0.00056099
-4.20000000,-2.59663110,-0.00055975
-4.20000000,-2.49655600,-0.00055814
-4.20000000,-2.39648650,-0.00055599
-4.20000000,-2.29694460,-0.00055307
-4.20000000,-2.19689560,-0.00054913
-4.20000000,-2.09691010,-0.00054394
-4.20000000,-1.99687290,-0.00053747
-4.20000000,-1.89683150,-0.00052950
-4.20000000,-1.79682540,-0.00051991
-4.20000000,-1.69733130,-0.00050861
-4.20000000,-1.59731620,-0.00049546
-4.20000000,-1.49728510,-0.00048043
-4.20000000,-1.39729720,-0.00046341
-4.20000000,-1.29733500,-0.00044440
-4.20000000,-1.19737920,-0.00042330
-4.20000000,-1.09795020,-0.00040035
-4.20000000,-0.99794177,-0.00037506
-4.20000000,-0.89802268,-0.00034767
-4.20000000,-0.79811884,-0.00031802
-4.20000000,-0.69823638,-0.00028627
-4.20000000,-0.59834949,-0.00025220
-4.20000000,-0.49894092,-0.00021615
-4.20000000,-0.39908693,-0.00017760
-4.20000000,-0.29924035,-0.00013674
-4.20000000,-0.19941343,-0.00009348
-4.20000000,-0.09960725,-0.00004795
-4.20000000,-0.00015740,-0.00000004
-4.10000000,-4.99673730,-0.00053449
-4.10000000,-4.89665490,-0.00053432
-4.10000000,-4.79656980,-0.00053416
-4.10000000,-4.69696600,-0.00053397
-4.10000000,-4.59688330,-0.00053380
-4.10000000,-4.49680080,-0.00053363
-4.10000000,-4.39672620,-0.00053338
-4.10000000,-4.29662530,-0.00053330
-4.10000000,-4.19668160,-0.00053304
-4.10000000,-4.09711890,-0.00053287
-4.10000000,-3.99704690,-0.00053267
-4.10000000,-3.89698120,-0.00053251
-4.10000000,-3.79689210,-0.00053224
-4.10000000,-3.69675770,-0.00053208
-4.10000000,-3.59668430,-0.00053183
-4.10000000,-3.49711900,-0.00053156
-4.10000000,-3.39704950,-0.00053132
-4.10000000,-3.29696560,-0.00053107
-4.10000000,-3.19688680,-0.00053072
-4.10000000,-3.09674200,-0.00053037
-4.10000000,-2.99665820,-0.00053000
-4.10000000,-2.89711240,-0.00052958
-4.10000000,-2.79703110,-0.00052894
-4.10000000,-2.69695740,-0.00052831
-4.10000000,-2.59682170,-0.00052737
-4.10000000,-2.49674790,-0.00052620
-4.10000000,-2.39666930,-0.00052456
-4.10000000,-2.29712750,-0.00052233
-4.10000000,-2.19706810,-0.00051927
-4.10000000,-2.09708130,-0.00051509
-4.10000000,-1.99703630,-0.00050974
-4.10000000,-1.89700140,-0.00050301
-4.10000000,-1.79697710,-0.00049471
-4.10000000,-1.69747140,-0.00048472
-4.10000000,-1.59744980,-0.00047297
-4.10000000,-1.49740580,-0.00045926
-4.10000000,-1.39740740,-0.00044369
-4.10000000,-1.29744130,-0.00042619
-4.10000000,-1.19747780,-0.00040659
-4.10000000,-1.09803970,-0.00038501
-4.10000000,-0.99802565,-0.00036118
-4.10000000,-0.89809164,-0.00033526
-4.10000000,-0.79818244,-0.00030712
-4.10000000,-0.69829291,-0.00027673
-4.10000000,-0.59839306,-0.00024414
-4.10000000,-0.49897809,-0.00020941
-4.10000000,-0.39911454,-0.00017224
-4.10000000,-0.29926391,-0.00013276
-4.10000000,-0.19942952,-0.00009087
-4.10000000,-0.09961401,-0.00004663
-4.10000000,-0.00015869,-0.00000006
-4.00000000,-4.99693310,-0.00050178
-4.00000000,-4.89685200,-0.00050157
-4.00000000,-4.79676830,-0.00050136
-4.00000000,-4.69716050,-0.00050124
-4.00000000,-4.59707790,-0.00050110
-4.00000000,-4.49699660,-0.00050091
-4.00000000,-4.39692720,-0.00050076
-4.00000000,-4.29681980,-0.00050066
-4.00000000,-4.19686960,-0.00050040
-4.00000000,-4.09730820,-0.00050023
-4.00000000,-3.99723750,-0.00050010
-4.00000000,-3.89717310,-0.00049991
-4.00000000,-3.79708400,-0.00049970
-4.00000000,-3.69695350,-0.00049949
-4.00000000,-3.59687880,-0.00049936
-4.00000000,-3.49731490,-0.00049912
-4.00000000,-3.39724660,-0.00049888
-4.00000000,-3.29714850,-0.00049861
-4.00000000,-3.19708130,-0.00049834
-4.00000000,-3.09693400,-0.00049796
-4.00000000,-2.99685140,-0.00049772
-4.00000000,-2.89729910,-0.00049742
-4.00000000,-2.79722570,-0.00049686
-4.00000000,-2.69714540,-0.00049637
-4.00000000,-2.59700580,-0.00049568
-4.00000000,-2.49692690,-0.00049478
-4.00000000,-2.39684960,-0.00049357
-4.00000000,-2.29730380,-0.00049181
-4.00000000,-2.19724700,-0.00048954
-4.00000000,-2.09725120,-0.00048627
-4.00000000,-1.99720230,-0.00048193
-4.00000000,-1.89715050,-0.00047632
-4.00000000,-1.79712490,-0.00046920
-4.00000000,-1.69760880,-0.00046055
-4.00000000,-1.59758460,-0.00045018
-4.00000000,-1.49752770,-0.00043792
-4.00000000,-1.39752280,-0.00042381
-4.00000000,-1.29755280,-0.00040772
-4.00000000,-1.19757120,-0.00038962
-4.00000000,-1.09812920,-0.00036954
-4.00000000,-0.99810744,-0.00034716
-4.00000000,-0.89816715,-0.00032272
-4.00000000,-0.79824630,-0.00029596
-4.00000000,-0.69835455,-0.00026709
-4.00000000,-0.59844292,-0.00023593
