Vgs,Vds,Ids
-1.00000000,-0.00017948,0.00000001
-1.00000000,0.09992985,0.00000001
-1.00000000,0.20000550,0.00000000
-1.00000000,0.30008880,-0.00000001
-1.00000000,0.40017333,-0.00000003
-1.00000000,0.49974294,0.00000002
-1.00000000,0.59988488,-0.00000008
-1.00000000,0.69997259,0.00000002
-1.00000000,0.80004142,0.00000002
-1.00000000,0.90012536,-0.00000002
-1.00000000,1.00020760,-0.00000005
-1.00000000,1.09985220,-0.00000003
-1.00000000,1.19993580,-0.00000000
-1.00000000,1.30002020,-0.00000006
-1.00000000,1.40009160,-0.00000002
-1.00000000,1.50018220,-0.00000007
-1.00000000,1.60030790,-0.00000004
-1.00000000,1.69987990,0.00000002
-1.00000000,1.79996420,-0.00000002
-1.00000000,1.90003540,-0.00000008
-1.00000000,2.00012750,-0.00000002
-1.00000000,2.10019990,-0.00000003
-1.00000000,2.20022300,-0.00000003
-1.00000000,2.29979790,0.00000000
-1.00000000,2.39985480,0.00000005
-1.00000000,2.49994680,0.00000000
-1.00000000,2.60003370,0.00000003
-1.00000000,2.70017370,-0.00000006
-1.00000000,2.80026190,0.00000002
-1.00000000,2.89982090,-0.00000005
-1.00000000,2.99989880,0.00000001
-1.00000000,3.09998570,0.00000000
-1.00000000,3.20013340,0.00000004
-1.00000000,3.30021530,-0.00000006
-1.00000000,3.39978200,-0.00000001
-1.00000000,3.49986370,0.00000000
-1.00000000,3.59994940,0.00000004
-1.00000000,3.70002850,0.00000001
-1.00000000,3.80016850,0.00000003
-1.00000000,3.90025690,-0.00000006
-1.00000000,3.99980950,-0.00000004
-1.00000000,4.09988860,0.00000001
-1.00000000,4.19997040,-0.00000002
-1.00000000,4.29992770,0.00000003
-1.00000000,4.40002590,0.00000004
-1.00000000,4.50010640,0.00000000
-1.00000000,4.59967060,-0.00000004
-1.00000000,4.69975770,0.00000001
-1.00000000,4.79988870,-0.00000005
-1.00000000,4.89997950,-0.00000003
-1.00000000,5.00006250,0.00000000
-0.90000000,-0.00017412,-0.00000005
-0.90000000,0.09992857,-0.00000011
-0.90000000,0.20000747,0.00000002
-0.90000000,0.30009103,-0.00000002
-0.90000000,0.40017438,0.00000000
-0.90000000,0.49974111,-0.00000003
-0.90000000,0.59988291,0.00000002
-0.90000000,0.69997783,-0.00000000
-0.90000000,0.80004377,0.00000008
-0.90000000,0.90012628,0.00000000
-0.90000000,1.00021270,0.00000004
-0.90000000,1.09985350,0.00000000
-0.90000000,1.19993640,-0.00000002
-0.90000000,1.30002280,0.00000001
-0.90000000,1.40009160,-0.00000002
-0.90000000,1.50018220,0.00000005
-0.90000000,1.60031180,0.00000003
-0.90000000,1.69988120,-0.00000003
-0.90000000,1.79996420,0.00000005
-0.90000000,1.90003800,0.00000000
-0.90000000,2.00012230,0.00000000
-0.90000000,2.10019860,-0.00000000
-0.90000000,2.20022430,0.00000001
-0.90000000,2.29979660,-0.00000000
-0.90000000,2.39985610,0.00000001
-0.90000000,2.49994420,-0.00000002
-0.90000000,2.60002980,0.00000002
-0.90000000,2.70017370,0.00000000
-0.90000000,2.80025800,-0.00000001
-0.90000000,2.89981700,0.00000003
-0.90000000,2.99990270,0.00000004
-0.90000000,3.09998440,-0.00000003
-0.90000000,3.20013600,0.00000001
-0.90000000,3.30021400,0.00000002
-0.90000000,3.39978200,0.00000000
-0.90000000,3.49986760,0.00000000
-0.90000000,3.59995200,-0.00000005
-0.90000000,3.70002980,-0.00000003
-0.90000000,3.80016720,-0.00000002
-0.90000000,3.90026080,0.00000002
-0.90000000,3.99980950,-0.00000002
-0.90000000,4.09988340,0.00000003
-0.90000000,4.19996910,0.00000001
-0.90000000,4.29992510,-0.00000001
-0.90000000,4.40003110,-0.00000001
-0.90000000,4.50010250,0.00000000
-0.90000000,4.59966800,-0.00000002
-0.90000000,4.69975640,0.00000001
-0.90000000,4.79989260,-0.00000003
-0.90000000,4.89998080,0.00000003
-0.90000000,5.00006510,0.00000002
-0.80000000,-0.00017370,-0.00000000
-0.80000000,0.09993598,0.00000008
-0.80000000,0.20001113,-0.00000000
-0.80000000,0.30009142,-0.00000001
-0.80000000,0.40017922,-0.00000002
-0.80000000,0.49974229,0.00000004
-0.80000000,0.59988501,0.00000005
-0.80000000,0.69997495,-0.00000000
-0.80000000,0.80004521,0.00000000
-0.80000000,0.90012850,-0.00000005
-0.80000000,1.00020950,-0.00000002
-0.80000000,1.09985610,-0.00000001
-0.80000000,1.19993800,0.00000005
-0.80000000,1.30002020,0.00000008
-0.80000000,1.40009680,0.00000003
-0.80000000,1.50018610,-0.00000001
-0.80000000,1.60031050,-0.00000002
-0.80000000,1.69988250,-0.00000003
-0.80000000,1.79996420,-0.00000001
-0.80000000,1.90003930,-0.00000002
-0.80000000,2.00012230,0.00000006
-0.80000000,2.10019860,0.00000001
-0.80000000,2.20022430,0.00000003
-0.80000000,2.29980050,0.00000005
-0.80000000,2.39985740,-0.00000002
-0.80000000,2.49994680,-0.00000009
-0.80000000,2.60002590,0.00000001
-0.80000000,2.70016980,0.00000003
-0.80000000,2.80026060,0.00000002
-0.80000000,2.89982220,0.00000003
-0.80000000,2.99989880,-0.00000003
-0.80000000,3.09998950,0.00000002
-0.80000000,3.20013470,-0.00000005
-0.80000000,3.30021400,0.00000001
-0.80000000,3.39978330,-0.00000001
-0.80000000,3.49986500,0.00000006
-0.80000000,3.59994810,-0.00000002
-0.80000000,3.70002590,-0.00000004
-0.80000000,3.80016590,0.00000003
-0.80000000,3.90026080,0.00000003
-0.80000000,3.99980690,0.00000001
-0.80000000,4.09988600,-0.00000001
-0.80000000,4.19997040,-0.00000003
-0.80000000,4.29992380,0.00000006
-0.80000000,4.40002720,0.00000002
-0.80000000,4.50010380,0.00000000
-0.80000000,4.59967060,0.00000002
-0.80000000,4.69975770,0.00000005
-0.80000000,4.79988740,-0.00000001
-0.80000000,4.89997820,0.00000006
-0.80000000,5.00006120,0.00000003
-0.70000000,-0.00017396,0.00000005
-0.70000000,0.09993459,-0.00000004
-0.70000000,0.20000864,0.00000005
-0.70000000,0.30009378,0.00000005
-0.70000000,0.40017974,-0.00000004
-0.70000000,0.49974046,0.00000001
-0.70000000,0.59988239,0.00000003
-0.70000000,0.69997587,-0.00000001
-0.70000000,0.80004325,-0.00000000
-0.70000000,0.90012549,0.00000003
-0.70000000,1.00020990,-0.00000003
-0.70000000,1.09985270,0.00000004
-0.70000000,1.19993720,-0.00000002
-0.70000000,1.30002020,-0.00000001
-0.70000000,1.40008900,-0.00000000
-0.70000000,1.50018090,0.00000003
-0.70000000,1.60030790,0.00000005
-0.70000000,1.69988120,-0.00000003
-0.70000000,1.79996680,0.00000005
-0.70000000,1.90004320,0.00000000
-0.70000000,2.00012490,-0.00000001
-0.70000000,2.10020120,-0.00000004
-0.70000000,2.20021910,0.00000002
-0.70000000,2.29979920,-0.00000001
-0.70000000,2.39985350,0.00000007
-0.70000000,2.49995200,0.00000002
-0.70000000,2.60003240,0.00000000
-0.70000000,2.70017500,-0.00000004
-0.70000000,2.80026060,-0.00000004
-0.70000000,2.89981960,-0.00000001
-0.70000000,2.99989750,-0.00000001
-0.70000000,3.09998700,-0.00000002
-0.70000000,3.20013470,-0.00000002
-0.70000000,3.30021140,-0.00000000
-0.70000000,3.39977940,0.00000002
-0.70000000,3.49986370,0.00000006
-0.70000000,3.59994940,0.00000003
-0.70000000,3.70002200,-0.00000001
-0.70000000,3.80017240,0.00000003
-0.70000000,3.90026600,0.00000000
-0.70000000,3.99980430,0.00000001
-0.70000000,4.09988600,0.00000002
-0.70000000,4.19997170,0.00000001
-0.70000000,4.29992120,0.00000000
-0.70000000,4.40002590,0.00000000
-0.70000000,4.50010510,0.00000000
-0.70000000,4.59967060,0.00000004
-0.70000000,4.69975770,-0.00000004
-0.70000000,4.79988480,0.00000003
-0.70000000,4.89997820,-0.00000001
-0.70000000,5.00006120,-0.00000002
-0.60000000,-0.00017574,0.00000001
-0.60000000,0.09993485,-0.00000004
-0.60000000,0.20000878,-0.00000004
-0.60000000,0.30009024,0.00000003
-0.60000000,0.40017752,0.00000005
-0.60000000,0.49973863,-0.00000006
-0.60000000,0.59988448,0.00000006
-0.60000000,0.69997312,0.00000001
-0.60000000,0.80004416,-0.00000004
-0.60000000,0.90012287,-0.00000006
-0.60000000,1.00020630,0.00000000
-0.60000000,1.09985070,-0.00000003
-0.60000000,1.19993510,-0.00000003
-0.60000000,1.30002410,-0.00000001
-0.60000000,1.40009290,0.00000000
-0.60000000,1.50018350,0.00000003
-0.60000000,1.60030790,0.00000000
-0.60000000,1.69987860,0.00000007
-0.60000000,1.79996940,-0.00000003
-0.60000000,1.90003800,0.00000000
-0.60000000,2.00012490,-0.00000003
-0.60000000,2.10020120,-0.00000003
-0.60000000,2.20022170,-0.00000006
-0.60000000,2.29979270,-0.00000003
-0.60000000,2.39985480,-0.00000000
-0.60000000,2.49994550,0.00000001
-0.60000000,2.60002850,0.00000011
-0.60000000,2.70017500,-0.00000002
-0.60000000,2.80025930,0.00000004
-0.60000000,2.89981700,0.00000000
-0.60000000,2.99990140,-0.00000004
-0.60000000,3.09998310,-0.00000002
-0.60000000,3.20013470,-0.00000001
-0.60000000,3.30021140,0.00000001
-0.60000000,3.39978200,0.00000002
-0.60000000,3.49987020,-0.00000000
-0.60000000,3.59995070,-0.00000001
-0.60000000,3.70003110,-0.00000000
-0.60000000,3.80016720,0.00000004
-0.60000000,3.90026080,-0.00000001
-0.60000000,3.99980560,0.00000003
-0.60000000,4.09988470,0.00000000
-0.60000000,4.19997170,-0.00000004
-0.60000000,4.29991730,-0.00000001
-0.60000000,4.40002470,-0.00000002
-0.60000000,4.50010510,-0.00000002
-0.60000000,4.59966670,0.00000002
-0.60000000,4.69975640,-0.00000001
-0.60000000,4.79988870,0.00000000
-0.60000000,4.89997820,0.00000005
-0.60000000,5.00005990,0.00000003
-0.50000000,-0.00017721,0.00000003
-0.50000000,0.09993470,-0.00000003
-0.50000000,0.20000773,-0.00000001
-0.50000000,0.30009037,-0.00000000
-0.50000000,0.40017673,0.00000003
-0.50000000,0.49974321,-0.00000001
-0.50000000,0.59988344,0.00000002
-0.50000000,0.69997443,-0.00000001
-0.50000000,0.80004560,-0.00000000
-0.50000000,0.90012562,0.00000000
-0.50000000,1.00020910,0.00000010
-0.50000000,1.09985330,0.00000006
-0.50000000,1.19993520,0.00000001
-0.50000000,1.30001890,0.00000000
-0.50000000,1.40008770,-0.00000002
-0.50000000,1.50017960,-0.00000001
-0.50000000,1.60030790,0.00000003
-0.50000000,1.69988250,0.00000005
-0.50000000,1.79996420,-0.00000003
-0.50000000,1.90003930,-0.00000002
-0.50000000,2.00012100,0.00000004
-0.50000000,2.10020250,0.00000001
-0.50000000,2.20022430,-0.00000003
-0.50000000,2.29979530,-0.00000001
-0.50000000,2.39985350,0.00000003
-0.50000000,2.49994290,0.00000001
-0.50000000,2.60003110,0.00000008
-0.50000000,2.70017500,-0.00000003
-0.50000000,2.80025540,0.00000009
-0.50000000,2.89981570,0.00000002
-0.50000000,2.99989750,-0.00000002
-0.50000000,3.09998700,0.00000000
-0.50000000,3.20013340,-0.00000004
-0.50000000,3.30021790,0.00000002
-0.50000000,3.39978330,0.00000004
-0.50000000,3.49986370,0.00000002
-0.50000000,3.59995070,0.00000006
-0.50000000,3.70002980,0.00000001
-0.50000000,3.80017110,0.00000002
-0.50000000,3.90025560,-0.00000002
-0.50000000,3.99980690,0.00000000
-0.50000000,4.09988470,0.00000005
-0.50000000,4.19996910,0.00000002
-0.50000000,4.29992250,0.00000000
-0.50000000,4.40002850,-0.00000001
-0.50000000,4.50010250,-0.00000000
-0.50000000,4.59966800,0.00000001
-0.50000000,4.69975770,-0.00000001
-0.50000000,4.79989000,-0.00000003
-0.50000000,4.89997430,0.00000001
-0.50000000,5.00006120,0.00000001
-0.40000000,-0.00017872,-0.00000002
-0.40000000,0.09993358,0.00000001
-0.40000000,0.20000773,-0.00000001
-0.40000000,0.30009050,0.00000000
-0.40000000,0.40017843,0.00000001
-0.40000000,0.49974085,0.00000006
-0.40000000,0.59988069,0.00000002
-0.40000000,0.69997456,-0.00000003
-0.40000000,0.80004469,-0.00000000
-0.40000000,0.90012183,-0.00000001
-0.40000000,1.00020780,-0.00000001
-0.40000000,1.09985140,-0.00000001
-0.40000000,1.19993050,-0.00000000
-0.40000000,1.30001760,0.00000007
-0.40000000,1.40009160,0.00000001
-0.40000000,1.50018220,-0.00000003
-0.40000000,1.60030790,-0.00000006
-0.40000000,1.69988250,0.00000000
-0.40000000,1.79996420,0.00000002
-0.40000000,1.90003540,0.00000000
-0.40000000,2.00012230,0.00000002
-0.40000000,2.10019350,-0.00000005
-0.40000000,2.20022170,0.00000003
-0.40000000,2.29979400,-0.00000002
-0.40000000,2.39985350,-0.00000001
-0.40000000,2.49994290,-0.00000000
-0.40000000,2.60002980,-0.00000003
-0.40000000,2.70017630,-0.00000002
-0.40000000,2.80025930,0.00000001
-0.40000000,2.89981440,-0.00000004
-0.40000000,2.99989750,-0.00000003
-0.40000000,3.09998310,0.00000004
-0.40000000,3.20013080,-0.00000004
-0.40000000,3.30021400,0.00000003
-0.40000000,3.39978200,0.00000001
-0.40000000,3.49986240,0.00000001
-0.40000000,3.59994680,0.00000001
-0.40000000,3.70002590,0.00000001
-0.40000000,3.80016850,0.00000004
-0.40000000,3.90026080,-0.00000001
-0.40000000,3.99980950,-0.00000002
-0.40000000,4.09988860,-0.00000001
-0.40000000,4.19996910,-0.00000001
-0.40000000,4.29992380,-0.00000004
-0.40000000,4.40002590,-0.00000002
-0.40000000,4.50009990,-0.00000002
-0.40000000,4.59966410,-0.00000001
-0.40000000,4.69975900,-0.00000000
-0.40000000,4.79988740,-0.00000000
-0.40000000,4.89997690,-0.00000000
-0.40000000,5.00006120,0.00000001
-0.30000000,-0.00018031,-0.00000004
-0.30000000,0.09992940,0.00000003
-0.30000000,0.20000838,0.00000007
-0.30000000,0.30009024,-0.00000004
-0.30000000,0.40017621,-0.00000001
-0.30000000,0.49974190,0.00000008
-0.30000000,0.59988527,0.00000000
-0.30000000,0.69997652,-0.00000007
-0.30000000,0.80004390,0.00000004
-0.30000000,0.90012183,0.00000000
-0.30000000,1.00020930,-0.00000000
-0.30000000,1.09985140,-0.00000001
-0.30000000,1.19993230,0.00000001
-0.30000000,1.30002020,-0.00000001
-0.30000000,1.40009290,0.00000003
-0.30000000,1.50018350,0.00000002
-0.30000000,1.60030660,0.00000005
-0.30000000,1.69987860,-0.00000000
-0.30000000,1.79996160,-0.00000000
-0.30000000,1.90003670,0.00000002
-0.30000000,2.00011840,-0.00000007
-0.30000000,2.10019730,-0.00000000
-0.30000000,2.20021780,-0.00000010
-0.30000000,2.29979270,0.00000003
-0.30000000,2.39985610,-0.00000004
-0.30000000,2.49994940,-0.00000005
-0.30000000,2.60002980,-0.00000000
-0.30000000,2.70017630,-0.00000005
-0.30000000,2.80025410,0.00000007
-0.30000000,2.89981440,0.00000000
-0.30000000,2.99989620,-0.00000003
-0.30000000,3.09998180,-0.00000005
-0.30000000,3.20013730,0.00000003
-0.30000000,3.30021530,-0.00000008
-0.30000000,3.39977940,-0.00000006
-0.30000000,3.49986500,0.00000005
-0.30000000,3.59994940,0.00000003
-0.30000000,3.70002720,-0.00000004
-0.30000000,3.80016590,-0.00000001
-0.30000000,3.90025690,0.00000001
-0.30000000,3.99980820,0.00000002
-0.30000000,4.09988340,0.00000001
-0.30000000,4.19996520,0.00000005
-0.30000000,4.29992120,0.00000004
-0.30000000,4.40002470,0.00000003
-0.30000000,4.50010120,-0.00000004
-0.30000000,4.59966670,-0.00000002
-0.30000000,4.69975900,0.00000004
-0.30000000,4.79988870,0.00000001
-0.30000000,4.89997170,-0.00000003
-0.30000000,5.00005990,0.00000003
-0.20000000,-0.00017846,0.00000005
-0.20000000,0.09993098,0.00000004
-0.20000000,0.20000655,0.00000001
-0.20000000,0.30008959,-0.00000000
-0.20000000,0.40017398,-0.00000001
-0.20000000,0.49973758,0.00000001
-0.20000000,0.59988422,-0.00000001
-0.20000000,0.69997272,0.00000001
-0.20000000,0.80004482,-0.00000007
-0.20000000,0.90012209,0.00000002
-0.20000000,1.00020930,0.00000001
-0.20000000,1.09985180,-0.00000001
-0.20000000,1.19993600,-0.00000001
-0.20000000,1.30001760,0.00000003
-0.20000000,1.40009030,-0.00000000
-0.20000000,1.50018090,0.00000006
-0.20000000,1.60031050,0.00000001
-0.20000000,1.69988250,0.00000001
-0.20000000,1.79996550,-0.00000001
-0.20000000,1.90003280,0.00000003
-0.20000000,2.00011970,-0.00000000
-0.20000000,2.10020250,0.00000002
-0.20000000,2.20022300,0.00000001
-0.20000000,2.29979010,0.00000003
-0.20000000,2.39985090,-0.00000003
-0.20000000,2.49994420,-0.00000007
-0.20000000,2.60003370,0.00000005
-0.20000000,2.70017630,-0.00000003
-0.20000000,2.80026060,-0.00000001
-0.20000000,2.89981700,-0.00000004
-0.20000000,2.99990010,-0.00000004
-0.20000000,3.09998570,-0.00000003
-0.20000000,3.20013470,0.00000005
-0.20000000,3.30021530,-0.00000000
-0.20000000,3.39978200,-0.00000001
-0.20000000,3.49986500,-0.00000001
-0.20000000,3.59995070,0.00000000
-0.20000000,3.70002980,-0.00000000
-0.20000000,3.80016330,0.00000003
-0.20000000,3.90025430,-0.00000007
-0.20000000,3.99980560,0.00000000
-0.20000000,4.09988210,-0.00000004
-0.20000000,4.19997170,0.00000002
-0.20000000,4.29992510,-0.00000003
-0.20000000,4.40002590,-0.00000001
-0.20000000,4.50009990,0.00000000
-0.20000000,4.59966670,0.00000007
-0.20000000,4.69975640,-0.00000002
-0.20000000,4.79988480,0.00000002
-0.20000000,4.89997820,-0.00000002
-0.20000000,5.00005990,-0.00000007
-0.10000000,-0.00017910,-0.00000003
-0.10000000,0.09993145,0.00000001
-0.10000000,0.20000956,0.00000006
-0.10000000,0.30008972,0.00000006
-0.10000000,0.40017673,0.00000004
-0.10000000,0.49973954,0.00000005
-0.10000000,0.59988239,0.00000005
-0.10000000,0.69997233,-0.00000001
-0.10000000,0.80004469,0.00000001
-0.10000000,0.90012183,0.00000009
-0.10000000,1.00020610,0.00000011
-0.10000000,1.09985250,0.00000001
-0.10000000,1.19993430,0.00000006
-0.10000000,1.30001120,0.00000002
-0.10000000,1.40008900,0.00000002
-0.10000000,1.50018220,0.00000005
-0.10000000,1.60030530,0.00000004
-0.10000000,1.69988250,0.00000003
-0.10000000,1.79996550,0.00000004
-0.10000000,1.90003670,0.00000007
-0.10000000,2.00012360,0.00000004
-0.10000000,2.10020120,0.00000003
-0.10000000,2.20022560,0.00000006
-0.10000000,2.29979270,0.00000003
-0.10000000,2.39985610,0.00000003
-0.10000000,2.49994680,0.00000004
-0.10000000,2.60002590,0.00000001
-0.10000000,2.70016720,0.00000008
-0.10000000,2.80025670,0.00000006
-0.10000000,2.89981830,0.00000007
-0.10000000,2.99990010,0.00000004
-0.10000000,3.09998830,0.00000006
-0.10000000,3.20013340,-0.00000000
-0.10000000,3.30021530,0.00000004
-0.10000000,3.39977940,0.00000006
-0.10000000,3.49986370,0.00000002
-0.10000000,3.59995070,0.00000005
-0.10000000,3.70002590,0.00000002
-0.10000000,3.80016460,0.00000006
-0.10000000,3.90026210,0.00000002
-0.10000000,3.99980950,0.00000008
-0.10000000,4.09988600,0.00000005
-0.10000000,4.19996910,0.00000003
-0.10000000,4.29991730,0.00000008
-0.10000000,4.40002470,0.00000005
-0.10000000,4.50010900,0.00000005
-0.10000000,4.59966800,0.00000006
-0.10000000,4.69975250,0.00000005
-0.10000000,4.79988870,0.00000005
-0.10000000,4.89997430,0.00000009
-0.10000000,5.00006380,0.00000005
0.00000000,-0.00017780,0.00000003
0.00000000,0.09992540,0.00000048
0.00000000,0.20000433,0.00000057
0.00000000,0.30008697,0.00000053
0.00000000,0.40017490,0.00000056
0.00000000,0.49973601,0.00000056
0.00000000,0.59987585,0.00000057
0.00000000,0.69996958,0.00000061
0.00000000,0.80003762,0.00000068
0.00000000,0.90012104,0.00000067
0.00000000,1.00020510,0.00000060
0.00000000,1.09984700,0.00000067
0.00000000,1.19993160,0.00000064
0.00000000,1.30001890,0.00000064
0.00000000,1.40008510,0.00000073
0.00000000,1.50017570,0.00000070
0.00000000,1.60030660,0.00000065
0.00000000,1.69987340,0.00000070
0.00000000,1.79996160,0.00000068
0.00000000,1.90003540,0.00000069
0.00000000,2.00011970,0.00000076
0.00000000,2.10019860,0.00000069
0.00000000,2.20021260,0.00000073
0.00000000,2.29979270,0.00000071
0.00000000,2.39984830,0.00000069
0.00000000,2.49994030,0.00000072
0.00000000,2.60002330,0.00000073
0.00000000,2.70017110,0.00000076
0.00000000,2.80025670,0.00000070
0.00000000,2.89981830,0.00000069
0.00000000,2.99989110,0.00000073
0.00000000,3.09998050,0.00000072
0.00000000,3.20013210,0.00000071
0.00000000,3.30020880,0.00000075
0.00000000,3.39977430,0.00000077
0.00000000,3.49986110,0.00000079
0.00000000,3.59994940,0.00000078
0.00000000,3.70002200,0.00000074
0.00000000,3.80016200,0.00000077
0.00000000,3.90025180,0.00000078
0.00000000,3.99980170,0.00000080
0.00000000,4.09987820,0.00000073
0.00000000,4.19996520,0.00000080
0.00000000,4.29992120,0.00000081
0.00000000,4.40001950,0.00000075
0.00000000,4.50010250,0.00000081
0.00000000,4.59966150,0.00000077
0.00000000,4.69975120,0.00000079
0.00000000,4.79988350,0.00000083
0.00000000,4.89997170,0.00000079
0.00000000,5.00005990,0.00000084
0.10000000,-0.00017781,-0.00000000
0.10000000,0.09991405,0.00000325
0.10000000,0.19998889,0.00000367
0.10000000,0.30006603,0.00000378
0.10000000,0.40015409,0.00000390
0.10000000,0.49971795,0.00000400
0.10000000,0.59986041,0.00000408
0.10000000,0.69995087,0.00000413
0.10000000,0.80001852,0.00000428
0.10000000,0.90010115,0.00000422
0.10000000,1.00018260,0.00000432
0.10000000,1.09982960,0.00000436
0.10000000,1.19991050,0.00000447
0.10000000,1.29999170,0.00000449
0.10000000,1.40006570,0.00000438
0.10000000,1.50015630,0.00000454
0.10000000,1.60028200,0.00000461
0.10000000,1.69985010,0.00000459
0.10000000,1.79993960,0.00000466
0.10000000,1.90000560,0.00000470
0.10000000,2.00009250,0.00000473
0.10000000,2.10017530,0.00000476
