Vgs,Vds,Ids
-1.00000000,-0.00017026,0.00000001
-1.00000000,0.09993524,-0.00000000
-1.00000000,0.20001479,0.00000000
-1.00000000,0.30009940,0.00000005
-1.00000000,0.40018589,-0.00000000
-1.00000000,0.49974779,-0.00000005
-1.00000000,0.59989312,0.00000005
-1.00000000,0.69998215,0.00000002
-1.00000000,0.80005306,0.00000000
-1.00000000,0.90013086,-0.00000003
-1.00000000,1.00021690,-0.00000005
-1.00000000,1.09986300,0.00000005
-1.00000000,1.19994630,0.00000002
-1.00000000,1.30002540,0.00000003
-1.00000000,1.40010330,-0.00000004
-1.00000000,1.50019130,0.00000000
-1.00000000,1.60031700,0.00000001
-1.00000000,1.69988770,-0.00000001
-1.00000000,1.79997200,0.00000005
-1.00000000,1.90004830,-0.00000000
-1.00000000,2.00013010,0.00000002
-1.00000000,2.10020770,-0.00000004
-1.00000000,2.20022430,0.00000004
-1.00000000,2.29980180,-0.00000002
-1.00000000,2.39986380,0.00000000
-1.00000000,2.49995070,0.00000000
-1.00000000,2.60003890,-0.00000005
-1.00000000,2.70018410,-0.00000003
-1.00000000,2.80026580,-0.00000001
-1.00000000,2.89982480,0.00000003
-1.00000000,2.99990920,0.00000006
-1.00000000,3.09999210,0.00000002
-1.00000000,3.20014510,0.00000003
-1.00000000,3.30022170,-0.00000005
-1.00000000,3.39978850,0.00000010
-1.00000000,3.49987150,-0.00000001
-1.00000000,3.59995720,0.00000001
-1.00000000,3.70003500,-0.00000001
-1.00000000,3.80017110,-0.00000002
-1.00000000,3.90026470,-0.00000002
-1.00000000,3.99981460,-0.00000001
-1.00000000,4.09988990,0.00000002
-1.00000000,4.19997430,0.00000002
-1.00000000,4.29993030,-0.00000007
-1.00000000,4.40003370,-0.00000003
-1.00000000,4.50011420,-0.00000006
-1.00000000,4.59967970,0.00000002
-1.00000000,4.69976810,0.00000000
-1.00000000,4.79989650,-0.00000001
-1.00000000,4.89998340,-0.00000001
-1.00000000,5.00006900,-0.00000000
-0.90000000,-0.00016894,-0.00000001
-0.90000000,0.09993910,-0.00000000
-0.90000000,0.20001545,-0.00000003
-0.90000000,0.30009757,0.00000002
-0.90000000,0.40018720,0.00000002
-0.90000000,0.49975067,0.00000001
-0.90000000,0.59988933,-0.00000004
-0.90000000,0.69998293,0.00000005
-0.90000000,0.80005319,0.00000002
-0.90000000,0.90013517,0.00000001
-0.90000000,1.00021630,-0.00000000
-0.90000000,1.09986410,0.00000000
-0.90000000,1.19994320,0.00000007
-0.90000000,1.30002930,-0.00000002
-0.90000000,1.40010070,-0.00000002
-0.90000000,1.50019390,-0.00000001
-0.90000000,1.60031960,-0.00000001
-0.90000000,1.69989030,-0.00000001
-0.90000000,1.79997460,0.00000003
-0.90000000,1.90004190,-0.00000001
-0.90000000,2.00013010,0.00000003
-0.90000000,2.10021030,0.00000000
-0.90000000,2.20022950,-0.00000001
-0.90000000,2.29980050,-0.00000002
-0.90000000,2.39986250,-0.00000003
-0.90000000,2.49995200,-0.00000001
-0.90000000,2.60004150,0.00000003
-0.90000000,2.70018410,-0.00000002
-0.90000000,2.80026970,0.00000004
-0.90000000,2.89982740,-0.00000002
-0.90000000,2.99990920,0.00000003
-0.90000000,3.09999080,0.00000003
-0.90000000,3.20014120,-0.00000004
-0.90000000,3.30021910,0.00000006
-0.90000000,3.39978850,0.00000007
-0.90000000,3.49987150,-0.00000005
-0.90000000,3.59995590,-0.00000002
-0.90000000,3.70003240,-0.00000004
-0.90000000,3.80017370,0.00000006
-0.90000000,3.90026080,0.00000005
-0.90000000,3.99981850,-0.00000003
-0.90000000,4.09989120,-0.00000003
-0.90000000,4.19997560,-0.00000001
-0.90000000,4.29993030,-0.00000000
-0.90000000,4.40003890,0.00000006
-0.90000000,4.50010900,0.00000007
-0.90000000,4.59967840,0.00000004
-0.90000000,4.69976680,0.00000004
-0.90000000,4.79989520,0.00000000
-0.90000000,4.89998210,-0.00000005
-0.90000000,5.00007290,-0.00000000
-0.80000000,-0.00016751,0.00000002
-0.80000000,0.09994038,-0.00000003
-0.80000000,0.20001479,-0.00000002
-0.80000000,0.30009757,0.00000003
-0.80000000,0.40018445,0.00000003
-0.80000000,0.49974661,0.00000000
-0.80000000,0.59988919,-0.00000001
-0.80000000,0.69997992,0.00000001
-0.80000000,0.80005189,0.00000002
-0.80000000,0.90013269,0.00000000
-0.80000000,1.00022020,-0.00000002
-0.80000000,1.09986030,0.00000002
-0.80000000,1.19994620,0.00000002
-0.80000000,1.30002410,-0.00000000
-0.80000000,1.40009550,0.00000000
-0.80000000,1.50018740,0.00000006
-0.80000000,1.60031830,-0.00000000
-0.80000000,1.69988510,0.00000005
-0.80000000,1.79997460,0.00000000
-0.80000000,1.90004580,0.00000000
-0.80000000,2.00013010,0.00000001
-0.80000000,2.10020640,0.00000002
-0.80000000,2.20023080,0.00000006
-0.80000000,2.29980830,0.00000001
-0.80000000,2.39985870,-0.00000001
-0.80000000,2.49994680,0.00000001
-0.80000000,2.60003760,-0.00000002
-0.80000000,2.70018280,0.00000002
-0.80000000,2.80026840,0.00000001
-0.80000000,2.89982090,-0.00000001
-0.80000000,2.99990400,-0.00000001
-0.80000000,3.09999210,0.00000003
-0.80000000,3.20013600,0.00000005
-0.80000000,3.30021660,0.00000000
-0.80000000,3.39979110,-0.00000003
-0.80000000,3.49987020,0.00000002
-0.80000000,3.59995850,0.00000004
-0.80000000,3.70003240,0.00000001
-0.80000000,3.80016980,0.00000003
-0.80000000,3.90026600,0.00000001
-0.80000000,3.99981330,-0.00000002
-0.80000000,4.09988990,0.00000001
-0.80000000,4.19997820,-0.00000001
-0.80000000,4.29993030,0.00000008
-0.80000000,4.40002980,0.00000001
-0.80000000,4.50011030,-0.00000000
-0.80000000,4.59967320,0.00000002
-0.80000000,4.69976420,-0.00000001
-0.80000000,4.79989520,0.00000000
-0.80000000,4.89997820,-0.00000001
-0.80000000,5.00006900,0.00000003
-0.70000000,-0.00016709,-0.00000004
-0.70000000,0.09993926,-0.00000003
-0.70000000,0.20001558,-0.00000001
-0.70000000,0.30009979,-0.00000002
-0.70000000,0.40018537,0.00000002
-0.70000000,0.49974949,-0.00000002
-0.70000000,0.59989155,0.00000006
-0.70000000,0.69998306,0.00000001
-0.70000000,0.80005149,-0.00000003
-0.70000000,0.90013125,0.00000002
-0.70000000,1.00021720,-0.00000001
-0.70000000,1.09985840,-0.00000003
-0.70000000,1.19994450,-0.00000000
-0.70000000,1.30002670,0.00000008
-0.70000000,1.40009680,0.00000001
-0.70000000,1.50018480,0.00000005
-0.70000000,1.60031180,-0.00000000
-0.70000000,1.69988250,0.00000004
-0.70000000,1.79997720,0.00000000
-0.70000000,1.90004450,0.00000001
-0.70000000,2.00012750,-0.00000005
-0.70000000,2.10020380,0.00000005
-0.70000000,2.20022690,-0.00000002
-0.70000000,2.29979920,-0.00000001
-0.70000000,2.39985740,0.00000002
-0.70000000,2.49994940,0.00000006
-0.70000000,2.60003370,0.00000007
-0.70000000,2.70017890,0.00000005
-0.70000000,2.80026190,0.00000001
-0.70000000,2.89982220,-0.00000003
-0.70000000,2.99990660,0.00000005
-0.70000000,3.09998830,-0.00000001
-0.70000000,3.20013990,0.00000004
-0.70000000,3.30022040,0.00000006
-0.70000000,3.39978460,-0.00000002
-0.70000000,3.49986890,-0.00000002
-0.70000000,3.59995070,-0.00000004
-0.70000000,3.70003500,-0.00000003
-0.70000000,3.80017110,0.00000000
-0.70000000,3.90026470,0.00000000
-0.70000000,3.99981590,-0.00000001
-0.70000000,4.09989120,0.00000001
-0.70000000,4.19997690,-0.00000002
-0.70000000,4.29992900,-0.00000004
-0.70000000,4.40003370,0.00000001
-0.70000000,4.50010640,-0.00000001
-0.70000000,4.59967450,0.00000001
-0.70000000,4.69976420,0.00000002
-0.70000000,4.79989000,-0.00000001
-0.70000000,4.89998340,-0.00000002
-0.70000000,5.00007160,0.00000000
-0.60000000,-0.00016800,-0.00000002
-0.60000000,0.09994346,0.00000001
-0.60000000,0.20001754,0.00000000
-0.60000000,0.30009679,0.00000002
-0.60000000,0.40018419,-0.00000002
-0.60000000,0.49974844,0.00000002
-0.60000000,0.59988933,0.00000002
-0.60000000,0.69998372,-0.00000011
-0.60000000,0.80005123,-0.00000004
-0.60000000,0.90013439,0.00000001
-0.60000000,1.00021550,0.00000002
-0.60000000,1.09986300,0.00000001
-0.60000000,1.19994370,0.00000001
-0.60000000,1.30003060,-0.00000003
-0.60000000,1.40009680,-0.00000003
-0.60000000,1.50018740,0.00000004
-0.60000000,1.60031700,-0.00000002
-0.60000000,1.69988640,0.00000003
-0.60000000,1.79997460,0.00000000
-0.60000000,1.90004700,0.00000002
-0.60000000,2.00013270,0.00000004
-0.60000000,2.10020770,-0.00000001
-0.60000000,2.20023210,0.00000000
-0.60000000,2.29980310,-0.00000001
-0.60000000,2.39986250,0.00000003
-0.60000000,2.49995200,-0.00000005
-0.60000000,2.60003760,-0.00000007
-0.60000000,2.70018540,-0.00000004
-0.60000000,2.80026580,0.00000002
-0.60000000,2.89982610,0.00000000
-0.60000000,2.99990790,-0.00000000
-0.60000000,3.09999340,-0.00000002
-0.60000000,3.20013860,-0.00000000
-0.60000000,3.30022170,-0.00000002
-0.60000000,3.39978980,0.00000003
-0.60000000,3.49987280,-0.00000005
-0.60000000,3.59995460,0.00000002
-0.60000000,3.70003500,0.00000002
-0.60000000,3.80017630,0.00000007
-0.60000000,3.90026340,0.00000006
-0.60000000,3.99981590,-0.00000000
-0.60000000,4.09988860,-0.00000001
-0.60000000,4.19998080,-0.00000005
-0.60000000,4.29993030,-0.00000005
-0.60000000,4.40003630,-0.00000001
-0.60000000,4.50010770,-0.00000006
-0.60000000,4.59967060,0.00000001
-0.60000000,4.69976420,-0.00000004
-0.60000000,4.79989390,0.00000003
-0.60000000,4.89998080,0.00000002
-0.60000000,5.00006120,0.00000000
-0.50000000,-0.00016915,0.00000002
-0.50000000,0.09994155,0.00000000
-0.50000000,0.20001702,-0.00000002
-0.50000000,0.30009535,0.00000004
-0.50000000,0.40018105,-0.00000003
-0.50000000,0.49974818,0.00000001
-0.50000000,0.59988906,0.00000004
-0.50000000,0.69998215,-0.00000009
-0.50000000,0.80004966,0.00000001
-0.50000000,0.90012889,0.00000002
-0.50000000,1.00021780,-0.00000003
-0.50000000,1.09986330,-0.00000002
-0.50000000,1.19994560,-0.00000003
-0.50000000,1.30002800,0.00000004
-0.50000000,1.40009810,-0.00000001
-0.50000000,1.50019000,-0.00000000
-0.50000000,1.60032090,0.00000002
-0.50000000,1.69988640,-0.00000003
-0.50000000,1.79997330,0.00000002
-0.50000000,1.90003930,0.00000001
-0.50000000,2.00013140,0.00000001
-0.50000000,2.10020510,0.00000004
-0.50000000,2.20022950,0.00000001
-0.50000000,2.29980310,0.00000006
-0.50000000,2.39986000,-0.00000001
-0.50000000,2.49994810,0.00000004
-0.50000000,2.60003110,-0.00000005
-0.50000000,2.70018020,0.00000001
-0.50000000,2.80026450,-0.00000003
-0.50000000,2.89982480,-0.00000000
-0.50000000,2.99990270,0.00000001
-0.50000000,3.09999600,0.00000001
-0.50000000,3.20013990,-0.00000003
-0.50000000,3.30022040,0.00000002
-0.50000000,3.39978850,0.00000002
-0.50000000,3.49987020,0.00000002
-0.50000000,3.59995720,-0.00000004
-0.50000000,3.70003110,-0.00000001
-0.50000000,3.80017500,-0.00000000
-0.50000000,3.90026210,-0.00000003
-0.50000000,3.99981590,-0.00000003
-0.50000000,4.09988730,0.00000000
-0.50000000,4.19997300,-0.00000001
-0.50000000,4.29993030,-0.00000001
-0.50000000,4.40002980,0.00000001
-0.50000000,4.50011030,0.00000004
-0.50000000,4.59967060,0.00000002
-0.50000000,4.69976680,-0.00000003
-0.50000000,4.79989390,-0.00000004
-0.50000000,4.89998080,0.00000004
-0.50000000,5.00006380,0.00000002
-0.40000000,-0.00017028,-0.00000000
-0.40000000,0.09993994,0.00000006
-0.40000000,0.20001924,0.00000004
-0.40000000,0.30009692,-0.00000001
-0.40000000,0.40018197,0.00000010
-0.40000000,0.49974896,0.00000002
-0.40000000,0.59988867,-0.00000001
-0.40000000,0.69997848,-0.00000004
-0.40000000,0.80004888,0.00000002
-0.40000000,0.90012811,0.00000001
-0.40000000,1.00021270,-0.00000002
-0.40000000,1.09985870,-0.00000006
-0.40000000,1.19994390,-0.00000005
-0.40000000,1.30002800,0.00000000
-0.40000000,1.40009550,-0.00000002
-0.40000000,1.50018480,0.00000003
-0.40000000,1.60031310,0.00000001
-0.40000000,1.69988640,0.00000004
-0.40000000,1.79997070,0.00000006
-0.40000000,1.90003930,0.00000002
-0.40000000,2.00012620,-0.00000001
-0.40000000,2.10019860,0.00000004
-0.40000000,2.20022170,0.00000000
-0.40000000,2.29980180,0.00000000
-0.40000000,2.39986000,-0.00000003
-0.40000000,2.49994810,0.00000004
-0.40000000,2.60003630,-0.00000003
-0.40000000,2.70017630,-0.00000003
-0.40000000,2.80026190,0.00000006
-0.40000000,2.89982090,-0.00000000
-0.40000000,2.99990270,-0.00000002
-0.40000000,3.09998950,0.00000001
-0.40000000,3.20013860,-0.00000002
-0.40000000,3.30021910,0.00000002
-0.40000000,3.39978720,0.00000000
-0.40000000,3.49987020,-0.00000002
-0.40000000,3.59995720,0.00000003
-0.40000000,3.70003370,0.00000000
-0.40000000,3.80017110,-0.00000004
-0.40000000,3.90026080,0.00000003
-0.40000000,3.99981210,0.00000002
-0.40000000,4.09989250,0.00000004
-0.40000000,4.19997560,0.00000004
-0.40000000,4.29992770,0.00000002
-0.40000000,4.40003500,-0.00000003
-0.40000000,4.50011160,-0.00000003
-0.40000000,4.59967190,0.00000005
-0.40000000,4.69976680,-0.00000003
-0.40000000,4.79989390,-0.00000003
-0.40000000,4.89998470,0.00000001
-0.40000000,5.00006640,0.00000003
-0.30000000,-0.00016844,-0.00000001
-0.30000000,0.09994048,0.00000004
-0.30000000,0.20001466,-0.00000000
-0.30000000,0.30009626,0.00000002
-0.30000000,0.40018720,-0.00000003
-0.30000000,0.49974779,0.00000002
-0.30000000,0.59988985,0.00000000
-0.30000000,0.69997848,-0.00000005
-0.30000000,0.80005149,0.00000003
-0.30000000,0.90012942,0.00000006
-0.30000000,1.00021310,0.00000001
-0.30000000,1.09985670,0.00000002
-0.30000000,1.19994090,-0.00000011
-0.30000000,1.30002280,0.00000003
-0.30000000,1.40009420,0.00000002
-0.30000000,1.50018870,-0.00000002
-0.30000000,1.60031700,0.00000001
-0.30000000,1.69988900,0.00000002
-0.30000000,1.79997200,-0.00000003
-0.30000000,1.90004060,0.00000002
-0.30000000,2.00013140,0.00000004
-0.30000000,2.10020250,-0.00000003
-0.30000000,2.20022560,0.00000002
-0.30000000,2.29980050,-0.00000001
-0.30000000,2.39986130,0.00000001
-0.30000000,2.49994680,-0.00000005
-0.30000000,2.60003370,0.00000000
-0.30000000,2.70018020,0.00000003
-0.30000000,2.80026190,0.00000000
-0.30000000,2.89982220,0.00000004
-0.30000000,2.99990790,0.00000002
-0.30000000,3.09998700,0.00000002
-0.30000000,3.20013860,0.00000001
-0.30000000,3.30021790,0.00000004
-0.30000000,3.39978460,0.00000004
-0.30000000,3.49986630,0.00000002
-0.30000000,3.59995460,0.00000003
-0.30000000,3.70002980,-0.00000000
-0.30000000,3.80016980,-0.00000006
-0.30000000,3.90026470,0.00000004
-0.30000000,3.99981080,0.00000003
-0.30000000,4.09988340,0.00000003
-0.30000000,4.19997300,0.00000003
-0.30000000,4.29992640,0.00000000
-0.30000000,4.40003370,-0.00000001
-0.30000000,4.50010380,0.00000001
-0.30000000,4.59967060,0.00000004
-0.30000000,4.69976290,-0.00000000
-0.30000000,4.79989130,-0.00000001
-0.30000000,4.89998340,-0.00000001
-0.30000000,5.00006510,-0.00000003
-0.20000000,-0.00017218,0.00000002
-0.20000000,0.09994071,-0.00000003
-0.20000000,0.20001519,0.00000003
-0.20000000,0.30009574,0.00000005
-0.20000000,0.40018249,0.00000000
-0.20000000,0.49974635,0.00000002
-0.20000000,0.59988841,0.00000002
-0.20000000,0.69998018,0.00000003
-0.20000000,0.80004652,0.00000003
-0.20000000,0.90012837,0.00000005
-0.20000000,1.00021430,0.00000000
-0.20000000,1.09985440,-0.00000002
-0.20000000,1.19994150,0.00000011
-0.20000000,1.30002280,0.00000009
-0.20000000,1.40009290,-0.00000001
-0.20000000,1.50018740,0.00000007
-0.20000000,1.60031180,0.00000002
-0.20000000,1.69988250,0.00000000
-0.20000000,1.79997070,-0.00000002
-0.20000000,1.90004320,0.00000005
-0.20000000,2.00012750,-0.00000001
-0.20000000,2.10020250,0.00000005
-0.20000000,2.20022430,0.00000005
-0.20000000,2.29979660,-0.00000002
-0.20000000,2.39985740,-0.00000000
-0.20000000,2.49994680,0.00000004
-0.20000000,2.60003630,-0.00000000
-0.20000000,2.70017760,-0.00000001
-0.20000000,2.80026190,0.00000003
-0.20000000,2.89982350,0.00000003
-0.20000000,2.99990010,-0.00000000
-0.20000000,3.09998950,0.00000001
-0.20000000,3.20013990,0.00000006
-0.20000000,3.30022040,0.00000004
-0.20000000,3.39978460,0.00000000
-0.20000000,3.49986890,0.00000002
-0.20000000,3.59995330,0.00000004
-0.20000000,3.70003370,0.00000000
-0.20000000,3.80016980,0.00000005
-0.20000000,3.90026340,-0.00000001
-0.20000000,3.99981080,-0.00000001
-0.20000000,4.09988990,0.00000005
-0.20000000,4.19997040,-0.00000002
-0.20000000,4.29992640,0.00000003
-0.20000000,4.40003110,-0.00000000
-0.20000000,4.50010640,-0.00000001
-0.20000000,4.59967190,0.00000002
-0.20000000,4.69976160,0.00000006
-0.20000000,4.79989130,0.00000001
-0.20000000,4.89997820,-0.00000001
-0.20000000,5.00006770,0.00000008
-0.10000000,-0.00017080,-0.00000002
-0.10000000,0.09993628,0.00000002
-0.10000000,0.20001453,0.00000004
-0.10000000,0.30009744,0.00000006
-0.10000000,0.40018184,0.00000002
-0.10000000,0.49974896,0.00000005
-0.10000000,0.59988736,0.00000004
-0.10000000,0.69997979,0.00000003
-0.10000000,0.80005215,-0.00000002
-0.10000000,0.90012510,-0.00000001
-0.10000000,1.00021360,0.00000002
-0.10000000,1.09985780,0.00000005
-0.10000000,1.19994120,0.00000002
-0.10000000,1.30002150,0.00000004
-0.10000000,1.40009420,0.00000003
-0.10000000,1.50018740,0.00000000
-0.10000000,1.60031050,0.00000004
-0.10000000,1.69988510,0.00000001
-0.10000000,1.79997200,0.00000007
-0.10000000,1.90004450,0.00000004
-0.10000000,2.00013010,0.00000004
-0.10000000,2.10020770,-0.00000003
-0.10000000,2.20022430,0.00000003
-0.10000000,2.29980050,0.00000003
-0.10000000,2.39985870,0.00000005
-0.10000000,2.49995070,0.00000001
-0.10000000,2.60002850,0.00000002
-0.10000000,2.70017630,0.00000009
-0.10000000,2.80026060,0.00000002
-0.10000000,2.89982220,0.00000010
-0.10000000,2.99990270,0.00000004
-0.10000000,3.09998830,0.00000003
-0.10000000,3.20013730,0.00000009
-0.10000000,3.30021270,0.00000004
-0.10000000,3.39978200,-0.00000000
-0.10000000,3.49986760,0.00000003
-0.10000000,3.59995460,0.00000002
-0.10000000,3.70002720,0.00000009
-0.10000000,3.80016720,-0.00000001
-0.10000000,3.90026340,0.00000006
-0.10000000,3.99981330,0.00000003
-0.10000000,4.09988080,0.00000009
-0.10000000,4.19996910,0.00000004
-0.10000000,4.29992510,0.00000002
-0.10000000,4.40003240,0.00000010
-0.10000000,4.50010640,0.00000006
-0.10000000,4.59966540,0.00000006
-0.10000000,4.69976030,0.00000007
-0.10000000,4.79989260,0.00000005
-0.10000000,4.89998470,0.00000008
-0.10000000,5.00006640,0.00000004
0.00000000,-0.00017086,0.00000001
0.00000000,0.09993483,0.00000029
0.00000000,0.20001322,0.00000032
0.00000000,0.30009181,0.00000037
0.00000000,0.40017896,0.00000036
0.00000000,0.49974504,0.00000038
0.00000000,0.59989050,0.00000042
0.00000000,0.69997573,0.00000039
0.00000000,0.80004966,0.00000035
0.00000000,0.90012457,0.00000040
0.00000000,1.00021220,0.00000040
0.00000000,1.09985390,0.00000043
0.00000000,1.19993780,0.00000047
0.00000000,1.30001890,0.00000048
0.00000000,1.40009160,0.00000045
0.00000000,1.50018350,0.00000042
0.00000000,1.60031180,0.00000047
0.00000000,1.69988640,0.00000051
0.00000000,1.79996420,0.00000052
0.00000000,1.90003930,0.00000046
0.00000000,2.00012750,0.00000045
0.00000000,2.10019990,0.00000045
0.00000000,2.20022170,0.00000052
0.00000000,2.29979790,0.00000050
0.00000000,2.39985870,0.00000046
0.00000000,2.49994940,0.00000053
0.00000000,2.60003240,0.00000050
0.00000000,2.70017890,0.00000048
0.00000000,2.80025800,0.00000051
0.00000000,2.89981830,0.00000048
0.00000000,2.99989750,0.00000055
0.00000000,3.09998570,0.00000054
0.00000000,3.20013730,0.00000051
0.00000000,3.30021140,0.00000051
0.00000000,3.39978200,0.00000051
0.00000000,3.49986240,0.00000046
0.00000000,3.59994680,0.00000047
0.00000000,3.70003370,0.00000051
0.00000000,3.80016720,0.00000051
0.00000000,3.90026210,0.00000050
0.00000000,3.99980430,0.00000048
0.00000000,4.09988470,0.00000056
0.00000000,4.19997170,0.00000049
0.00000000,4.29991990,0.00000055
0.00000000,4.40002850,0.00000053
0.00000000,4.50010250,0.00000053
0.00000000,4.59966670,0.00000054
0.00000000,4.69975770,0.00000054
0.00000000,4.79988870,0.00000052
0.00000000,4.89997950,0.00000056
0.00000000,5.00006380,0.00000053
0.10000000,-0.00017004,-0.00000001
0.10000000,0.09992255,0.00000223
0.10000000,0.19999896,0.00000242
0.10000000,0.30008043,0.00000256
0.10000000,0.40016495,0.00000262
0.10000000,0.49972698,0.00000270
0.10000000,0.59986930,0.00000272
0.10000000,0.69995951,0.00000277
0.10000000,0.80003082,0.00000287
0.10000000,0.90010979,0.00000292
0.10000000,1.00019700,0.00000296
0.10000000,1.09983620,0.00000299
0.10000000,1.19992280,0.00000307
0.10000000,1.30000470,0.00000311
0.10000000,1.40007470,0.00000313
0.10000000,1.50017050,0.00000317
0.10000000,1.60029630,0.00000321
0.10000000,1.69986560,0.00000318
0.10000000,1.79995250,0.00000324
0.10000000,1.90002370,0.00000330
0.10000000,2.00010410,0.00000330
0.10000000,2.10018700,0.00000330
