Vgs,	Vds,	Ids
-1.00000000,-0.00015902,-0.00000003
-1.00000000,0.09994970,0.00000001
-1.00000000,0.20002710,-0.00000001
-1.00000000,0.30010647,-0.00000004
-1.00000000,0.40019374,-0.00000004
-1.00000000,0.49976179,0.00000004
-1.00000000,0.59989953,0.00000003
-1.00000000,0.69999170,-0.00000001
-1.00000000,0.80006196,0.00000001
-1.00000000,0.90014420,-0.00000004
-1.00000000,1.00022800,0.00000003
-1.00000000,1.09987090,0.00000001
-1.00000000,1.19995250,-0.00000001
-1.00000000,1.30003710,-0.00000005
-1.00000000,1.40011230,-0.00000001
-1.00000000,1.50020040,0.00000001
-1.00000000,1.60032610,0.00000002
-1.00000000,1.69989550,0.00000004
-1.00000000,1.79998500,-0.00000000
-1.00000000,1.90005480,-0.00000000
-1.00000000,2.00014690,-0.00000007
-1.00000000,2.10021680,-0.00000011
-1.00000000,2.20024120,-0.00000002
-1.00000000,2.29981470,0.00000000
-1.00000000,2.39987160,-0.00000002
-1.00000000,2.49995970,-0.00000001
-1.00000000,2.60004930,-0.00000003
-1.00000000,2.70018790,-0.00000002
-1.00000000,2.80027750,-0.00000001
-1.00000000,2.89983520,0.00000002
-1.00000000,2.99991570,0.00000000
-1.00000000,3.10000120,-0.00000005
-1.00000000,3.20014900,-0.00000001
-1.00000000,3.30022690,0.00000003
-1.00000000,3.39979760,0.00000001
-1.00000000,3.49987790,-0.00000000
-1.00000000,3.59996630,-0.00000002
-1.00000000,3.70004410,-0.00000002
-1.00000000,3.80017890,-0.00000002
-1.00000000,3.90027250,-0.00000000
-1.00000000,3.99982110,0.00000004
-1.00000000,4.09990160,-0.00000000
-1.00000000,4.19998730,0.00000001
-1.00000000,4.29994060,-0.00000002
-1.00000000,4.40004800,-0.00000001
-1.00000000,4.50011940,0.00000002
-1.00000000,4.59968480,0.00000005
-1.00000000,4.69977200,-0.00000001
-1.00000000,4.79990430,0.00000003
-1.00000000,4.89999380,0.00000002
-1.00000000,5.00008070,-0.00000006
-0.90000000,-0.00015745,0.00000003
-0.90000000,0.09994878,-0.00000005
-0.90000000,0.20002880,-0.00000004
-0.90000000,0.30011079,0.00000002
-0.90000000,0.40019688,-0.00000005
-0.90000000,0.49976022,-0.00000000
-0.90000000,0.59990110,-0.00000002
-0.90000000,0.69999275,-0.00000001
-0.90000000,0.80006602,0.00000002
-0.90000000,0.90014211,-0.00000001
-0.90000000,1.00022920,0.00000001
-0.90000000,1.09987140,0.00000002
-0.90000000,1.19995460,0.00000004
-0.90000000,1.30003840,0.00000001
-0.90000000,1.40010590,0.00000000
-0.90000000,1.50019780,0.00000005
-0.90000000,1.60032220,0.00000004
-0.90000000,1.69989680,0.00000003
-0.90000000,1.79998110,-0.00000000
-0.90000000,1.90005350,0.00000002
-0.90000000,2.00014050,0.00000005
-0.90000000,2.10021810,-0.00000001
-0.90000000,2.20024120,-0.00000000
-0.90000000,2.29980950,-0.00000004
-0.90000000,2.39986900,0.00000007
-0.90000000,2.49996360,0.00000002
-0.90000000,2.60004930,0.00000002
-0.90000000,2.70018920,0.00000002
-0.90000000,2.80027750,-0.00000002
-0.90000000,2.89983520,-0.00000001
-0.90000000,2.99991570,-0.00000003
-0.90000000,3.10000250,0.00000000
-0.90000000,3.20015160,-0.00000002
-0.90000000,3.30022430,0.00000001
-0.90000000,3.39979630,-0.00000003
-0.90000000,3.49988050,-0.00000004
-0.90000000,3.59996500,0.00000002
-0.90000000,3.70004670,0.00000004
-0.90000000,3.80018540,0.00000003
-0.90000000,3.90027510,-0.00000008
-0.90000000,3.99982500,0.00000002
-0.90000000,4.09989770,-0.00000000
-0.90000000,4.19998860,-0.00000002
-0.90000000,4.29993670,0.00000003
-0.90000000,4.40004410,0.00000002
-0.90000000,4.50012190,0.00000006
-0.90000000,4.59968350,0.00000005
-0.90000000,4.69977070,-0.00000002
-0.90000000,4.79990430,-0.00000002
-0.90000000,4.89998730,-0.00000004
-0.90000000,5.00007420,0.00000003
-0.80000000,-0.00015605,0.00000004
-0.80000000,0.09995122,-0.00000002
-0.80000000,0.20002618,-0.00000002
-0.80000000,0.30010660,0.00000005
-0.80000000,0.40019688,0.00000001
-0.80000000,0.49975590,-0.00000002
-0.80000000,0.59990660,0.00000001
-0.80000000,0.69999366,0.00000001
-0.80000000,0.80005961,-0.00000000
-0.80000000,0.90014106,-0.00000004
-0.80000000,1.00022700,0.00000004
-0.80000000,1.09987190,-0.00000001
-0.80000000,1.19995380,0.00000001
-0.80000000,1.30003320,0.00000001
-0.80000000,1.40010720,0.00000002
-0.80000000,1.50019780,0.00000010
-0.80000000,1.60032870,0.00000000
-0.80000000,1.69990060,-0.00000008
-0.80000000,1.79998890,-0.00000003
-0.80000000,1.90005350,0.00000001
-0.80000000,2.00014300,0.00000008
-0.80000000,2.10021810,0.00000001
-0.80000000,2.20023600,0.00000002
-0.80000000,2.29981210,-0.00000001
-0.80000000,2.39987030,-0.00000005
-0.80000000,2.49996100,0.00000002
-0.80000000,2.60004540,0.00000002
-0.80000000,2.70018660,0.00000003
-0.80000000,2.80027490,0.00000004
-0.80000000,2.89983390,0.00000001
-0.80000000,2.99991180,0.00000001
-0.80000000,3.09999990,-0.00000000
-0.80000000,3.20014770,-0.00000005
-0.80000000,3.30022300,-0.00000002
-0.80000000,3.39979760,-0.00000006
-0.80000000,3.49988570,-0.00000002
-0.80000000,3.59996500,0.00000002
-0.80000000,3.70004150,0.00000007
-0.80000000,3.80018150,0.00000003
-0.80000000,3.90027380,0.00000001
-0.80000000,3.99982240,-0.00000004
-0.80000000,4.09989380,0.00000001
-0.80000000,4.19998210,-0.00000000
-0.80000000,4.29994060,-0.00000003
-0.80000000,4.40004410,0.00000005
-0.80000000,4.50011550,-0.00000006
-0.80000000,4.59968220,-0.00000004
-0.80000000,4.69977070,-0.00000007
-0.80000000,4.79990300,-0.00000002
-0.80000000,4.89998730,0.00000001
-0.80000000,5.00007810,-0.00000001
-0.70000000,-0.00015850,-0.00000002
-0.70000000,0.09994932,-0.00000000
-0.70000000,0.20002474,0.00000002
-0.70000000,0.30010935,0.00000001
-0.70000000,0.40019492,0.00000002
-0.70000000,0.49976336,0.00000003
-0.70000000,0.59989888,0.00000004
-0.70000000,0.69999432,0.00000005
-0.70000000,0.80006392,0.00000001
-0.70000000,0.90014342,-0.00000002
-0.70000000,1.00022820,-0.00000004
-0.70000000,1.09987350,-0.00000006
-0.70000000,1.19995410,-0.00000003
-0.70000000,1.30004100,-0.00000001
-0.70000000,1.40010970,0.00000000
-0.70000000,1.50019910,0.00000000
-0.70000000,1.60032870,0.00000005
-0.70000000,1.69989930,-0.00000001
-0.70000000,1.79998370,0.00000002
-0.70000000,1.90005740,0.00000008
-0.70000000,2.00013920,-0.00000001
-0.70000000,2.10021680,-0.00000004
-0.70000000,2.20024120,0.00000001
-0.70000000,2.29981470,-0.00000001
-0.70000000,2.39987420,-0.00000002
-0.70000000,2.49995710,-0.00000004
-0.70000000,2.60004540,0.00000001
-0.70000000,2.70019180,0.00000008
-0.70000000,2.80027620,-0.00000001
-0.70000000,2.89983910,0.00000006
-0.70000000,2.99990920,0.00000001
-0.70000000,3.10000380,0.00000001
-0.70000000,3.20014900,-0.00000000
-0.70000000,3.30022560,0.00000001
-0.70000000,3.39979760,0.00000003
-0.70000000,3.49988050,0.00000001
-0.70000000,3.59997010,-0.00000000
-0.70000000,3.70004020,0.00000004
-0.70000000,3.80018020,-0.00000001
-0.70000000,3.90027510,0.00000002
-0.70000000,3.99982110,-0.00000002
-0.70000000,4.09990030,-0.00000009
-0.70000000,4.19999120,0.00000002
-0.70000000,4.29993930,-0.00000005
-0.70000000,4.40004540,0.00000000
-0.70000000,4.50011940,0.00000005
-0.70000000,4.59968220,-0.00000004
-0.70000000,4.69977070,-0.00000001
-0.70000000,4.79990430,0.00000007
-0.70000000,4.89999250,0.00000000
-0.70000000,5.00007940,0.00000000
-0.60000000,-0.00015837,0.00000003
-0.60000000,0.09994986,-0.00000006
-0.60000000,0.20002893,0.00000002
-0.60000000,0.30010909,0.00000002
-0.60000000,0.40019610,0.00000001
-0.60000000,0.49976323,0.00000003
-0.60000000,0.59990110,0.00000002
-0.60000000,0.69999602,0.00000008
-0.60000000,0.80006445,0.00000001
-0.60000000,0.90014368,0.00000000
-0.60000000,1.00022760,0.00000002
-0.60000000,1.09987110,-0.00000003
-0.60000000,1.19995460,-0.00000003
-0.60000000,1.30003710,0.00000002
-0.60000000,1.40010850,0.00000001
-0.60000000,1.50019390,-0.00000000
-0.60000000,1.60033000,-0.00000001
-0.60000000,1.69989810,0.00000000
-0.60000000,1.79998110,-0.00000002
-0.60000000,1.90005480,-0.00000000
-0.60000000,2.00014170,-0.00000007
-0.60000000,2.10021160,-0.00000005
-0.60000000,2.20023600,0.00000001
-0.60000000,2.29981340,-0.00000007
-0.60000000,2.39987290,0.00000002
-0.60000000,2.49996490,-0.00000003
-0.60000000,2.60005060,0.00000004
-0.60000000,2.70019180,-0.00000001
-0.60000000,2.80027880,0.00000001
-0.60000000,2.89983780,-0.00000000
-0.60000000,2.99991440,0.00000001
-0.60000000,3.09999990,0.00000001
-0.60000000,3.20014770,-0.00000004
-0.60000000,3.30022560,-0.00000001
-0.60000000,3.39980020,0.00000003
-0.60000000,3.49988440,-0.00000004
-0.60000000,3.59996240,0.00000001
-0.60000000,3.70004540,0.00000006
-0.60000000,3.80017760,-0.00000001
-0.60000000,3.90027510,-0.00000002
-0.60000000,3.99982370,0.00000002
-0.60000000,4.09989640,-0.00000001
-0.60000000,4.19997820,0.00000003
-0.60000000,4.29994060,0.00000001
-0.60000000,4.40004280,0.00000004
-0.60000000,4.50011680,-0.00000003
-0.60000000,4.59968220,0.00000002
-0.60000000,4.69977580,-0.00000002
-0.60000000,4.79990040,-0.00000003
-0.60000000,4.89999120,0.00000002
-0.60000000,5.00008070,-0.00000005
-0.50000000,-0.00015888,0.00000005
-0.50000000,0.09995013,-0.00000003
-0.50000000,0.20002880,-0.00000001
-0.50000000,0.30010725,0.00000003
-0.50000000,0.40019649,0.00000007
-0.50000000,0.49976244,-0.00000002
-0.50000000,0.59990267,-0.00000001
-0.50000000,0.69999144,0.00000000
-0.50000000,0.80006157,-0.00000002
-0.50000000,0.90014355,0.00000003
-0.50000000,1.00022790,0.00000001
-0.50000000,1.09986960,0.00000001
-0.50000000,1.19995240,-0.00000001
-0.50000000,1.30003710,0.00000002
-0.50000000,1.40010200,0.00000001
-0.50000000,1.50019390,-0.00000001
-0.50000000,1.60032870,0.00000003
-0.50000000,1.69989420,0.00000003
-0.50000000,1.79997980,0.00000006
-0.50000000,1.90005220,-0.00000001
-0.50000000,2.00013660,0.00000003
-0.50000000,2.10021550,-0.00000004
-0.50000000,2.20023730,0.00000000
-0.50000000,2.29981600,-0.00000001
-0.50000000,2.39987030,0.00000003
-0.50000000,2.49996360,0.00000003
-0.50000000,2.60004540,0.00000003
-0.50000000,2.70018920,0.00000002
-0.50000000,2.80027230,-0.00000002
-0.50000000,2.89983910,0.00000005
-0.50000000,2.99991440,0.00000002
-0.50000000,3.09999730,0.00000004
-0.50000000,3.20014640,0.00000001
-0.50000000,3.30022300,-0.00000004
-0.50000000,3.39979630,0.00000002
-0.50000000,3.49988050,0.00000003
-0.50000000,3.59996500,0.00000005
-0.50000000,3.70004410,0.00000002
-0.50000000,3.80018020,0.00000007
-0.50000000,3.90026990,0.00000001
-0.50000000,3.99982760,0.00000000
-0.50000000,4.09989250,0.00000001
-0.50000000,4.19998210,0.00000004
-0.50000000,4.29993540,0.00000001
-0.50000000,4.40004410,0.00000004
-0.50000000,4.50011810,0.00000000
-0.50000000,4.59968740,0.00000000
-0.50000000,4.69976940,0.00000006
-0.50000000,4.79990430,0.00000003
-0.50000000,4.89998730,0.00000000
-0.50000000,5.00007550,-0.00000003
-0.40000000,-0.00015782,0.00000001
-0.40000000,0.09995086,0.00000002
-0.40000000,0.20002592,0.00000006
-0.40000000,0.30010686,0.00000001
-0.40000000,0.40019728,0.00000001
-0.40000000,0.49975760,-0.00000001
-0.40000000,0.59990058,0.00000002
-0.40000000,0.69999275,0.00000003
-0.40000000,0.80006078,0.00000002
-0.40000000,0.90014316,-0.00000001
-0.40000000,1.00022920,0.00000001
-0.40000000,1.09987200,0.00000000
-0.40000000,1.19995470,0.00000001
-0.40000000,1.30003970,0.00000006
-0.40000000,1.40010590,0.00000003
-0.40000000,1.50020040,0.00000001
-0.40000000,1.60032740,0.00000001
-0.40000000,1.69989680,0.00000003
-0.40000000,1.79998240,0.00000001
-0.40000000,1.90005350,-0.00000003
-0.40000000,2.00014300,0.00000001
-0.40000000,2.10021550,0.00000007
-0.40000000,2.20023860,0.00000002
-0.40000000,2.29981600,0.00000005
-0.40000000,2.39987290,0.00000006
-0.40000000,2.49996230,-0.00000000
-0.40000000,2.60004540,-0.00000000
-0.40000000,2.70019050,0.00000001
-0.40000000,2.80027750,0.00000002
-0.40000000,2.89983520,0.00000004
-0.40000000,2.99991440,0.00000005
-0.40000000,3.10000120,0.00000001
-0.40000000,3.20014900,0.00000001
-0.40000000,3.30022950,0.00000002
-0.40000000,3.39979890,0.00000000
-0.40000000,3.49987660,0.00000001
-0.40000000,3.59996760,-0.00000004
-0.40000000,3.70004280,0.00000003
-0.40000000,3.80018020,0.00000000
-0.40000000,3.90027510,0.00000001
-0.40000000,3.99981980,0.00000000
-0.40000000,4.09989510,0.00000001
-0.40000000,4.19997950,-0.00000000
-0.40000000,4.29994060,0.00000003
-0.40000000,4.40004020,-0.00000008
-0.40000000,4.50012190,0.00000000
-0.40000000,4.59968610,0.00000000
-0.40000000,4.69976680,0.00000005
-0.40000000,4.79990040,0.00000006
-0.40000000,4.89998990,0.00000001
-0.40000000,5.00007030,0.00000000
-0.30000000,-0.00015653,0.00000003
-0.30000000,0.09994918,0.00000005
-0.30000000,0.20002448,0.00000002
-0.30000000,0.30010869,-0.00000000
-0.30000000,0.40019584,0.00000004
-0.30000000,0.49976218,0.00000006
-0.30000000,0.59990267,0.00000010
-0.30000000,0.69999104,0.00000003
-0.30000000,0.80006327,0.00000004
-0.30000000,0.90014237,-0.00000000
-0.30000000,1.00022990,0.00000009
-0.30000000,1.09987010,0.00000003
-0.30000000,1.19995290,0.00000003
-0.30000000,1.30003840,-0.00000001
-0.30000000,1.40010460,0.00000006
-0.30000000,1.50020300,0.00000006
-0.30000000,1.60032090,-0.00000001
-0.30000000,1.69989810,0.00000000
-0.30000000,1.79998630,0.00000000
-0.30000000,1.90005350,0.00000000
-0.30000000,2.00014050,0.00000002
-0.30000000,2.10021680,-0.00000001
-0.30000000,2.20024250,0.00000002
-0.30000000,2.29981470,0.00000001
-0.30000000,2.39986900,0.00000011
-0.30000000,2.49995840,0.00000000
-0.30000000,2.60004670,0.00000005
-0.30000000,2.70019050,0.00000003
-0.30000000,2.80027490,0.00000003
-0.30000000,2.89983650,0.00000003
-0.30000000,2.99991570,0.00000000
-0.30000000,3.10000510,-0.00000003
-0.30000000,3.20015290,0.00000008
-0.30000000,3.30023210,0.00000003
-0.30000000,3.39979760,-0.00000001
-0.30000000,3.49987660,0.00000009
-0.30000000,3.59996500,-0.00000001
-0.30000000,3.70004280,-0.00000000
-0.30000000,3.80018150,-0.00000001
-0.30000000,3.90027120,-0.00000002
-0.30000000,3.99982370,0.00000003
-0.30000000,4.09989120,-0.00000003
-0.30000000,4.19998340,0.00000011
-0.30000000,4.29993930,0.00000003
-0.30000000,4.40004280,0.00000003
-0.30000000,4.50011940,0.00000008
-0.30000000,4.59967840,0.00000004
-0.30000000,4.69977330,0.00000015
-0.30000000,4.79990040,0.00000003
-0.30000000,4.89999250,0.00000002
-0.30000000,5.00007810,0.00000004
-0.20000000,-0.00015631,-0.00000004
-0.20000000,0.09994802,0.00000020
-0.20000000,0.20002605,0.00000018
-0.20000000,0.30010974,0.00000025
-0.20000000,0.40019374,0.00000025
-0.20000000,0.49976087,0.00000028
-0.20000000,0.59990254,0.00000025
-0.20000000,0.69999183,0.00000027
-0.20000000,0.80006026,0.00000032
-0.20000000,0.90013897,0.00000028
-0.20000000,1.00022840,0.00000032
-0.20000000,1.09986850,0.00000029
-0.20000000,1.19995470,0.00000038
-0.20000000,1.30003580,0.00000026
-0.20000000,1.40010460,0.00000032
-0.20000000,1.50020300,0.00000034
-0.20000000,1.60032610,0.00000034
-0.20000000,1.69989550,0.00000028
-0.20000000,1.79997980,0.00000031
-0.20000000,1.90005350,0.00000037
-0.20000000,2.00013660,0.00000029
-0.20000000,2.10021680,0.00000037
-0.20000000,2.20023600,0.00000023
-0.20000000,2.29980950,0.00000026
-0.20000000,2.39986640,0.00000034
-0.20000000,2.49995970,0.00000031
-0.20000000,2.60004280,0.00000039
-0.20000000,2.70018660,0.00000036
-0.20000000,2.80027100,0.00000036
-0.20000000,2.89982740,0.00000034
-0.20000000,2.99991050,0.00000036
-0.20000000,3.09999470,0.00000035
-0.20000000,3.20014510,0.00000034
-0.20000000,3.30022170,0.00000034
-0.20000000,3.39979370,0.00000042
-0.20000000,3.49987400,0.00000033
-0.20000000,3.59996370,0.00000036
-0.20000000,3.70003630,0.00000033
-0.20000000,3.80017890,0.00000037
-0.20000000,3.90026730,0.00000035
-0.20000000,3.99982500,0.00000035
-0.20000000,4.09989380,0.00000037
-0.20000000,4.19998080,0.00000038
-0.20000000,4.29993540,0.00000037
-0.20000000,4.40004150,0.00000037
-0.20000000,4.50011420,0.00000032
-0.20000000,4.59968090,0.00000034
-0.20000000,4.69977330,0.00000040
-0.20000000,4.79989910,0.00000039
-0.20000000,4.89999250,0.00000035
-0.20000000,5.00007940,0.00000037
-0.10000000,-0.00015777,0.00000001
-0.10000000,0.09994035,0.00000159
-0.10000000,0.20001833,0.00000186
-0.10000000,0.30009613,0.00000197
-0.10000000,0.40018537,0.00000201
-0.10000000,0.49974530,0.00000206
-0.10000000,0.59988972,0.00000215
-0.10000000,0.69998084,0.00000216
-0.10000000,0.80004992,0.00000221
-0.10000000,0.90012889,0.00000229
-0.10000000,1.00021330,0.00000229
-0.10000000,1.09985650,0.00000235
-0.10000000,1.19994110,0.00000237
-0.10000000,1.30001760,0.00000238
-0.10000000,1.40009290,0.00000248
-0.10000000,1.50018610,0.00000246
-0.10000000,1.60031050,0.00000249
-0.10000000,1.69987470,0.00000251
-0.10000000,1.79996810,0.00000250
-0.10000000,1.90003800,0.00000255
-0.10000000,2.00012490,0.00000258
-0.10000000,2.10020380,0.00000260
-0.10000000,2.20022690,0.00000256
-0.10000000,2.29980050,0.00000263
-0.10000000,2.39985870,0.00000262
-0.10000000,2.49994680,0.00000265
-0.10000000,2.60003240,0.00000268
-0.10000000,2.70017240,0.00000271
-0.10000000,2.80025670,0.00000270
-0.10000000,2.89981700,0.00000273
-0.10000000,2.99989880,0.00000275
-0.10000000,3.09998700,0.00000274
-0.10000000,3.20013730,0.00000274
-0.10000000,3.30021270,0.00000277
-0.10000000,3.39978070,0.00000275
-0.10000000,3.49986370,0.00000272
-0.10000000,3.59994940,0.00000280
-0.10000000,3.70002850,0.00000279
-0.10000000,3.80016590,0.00000286
-0.10000000,3.90025300,0.00000283
-0.10000000,3.99980820,0.00000285
-0.10000000,4.09988470,0.00000283
-0.10000000,4.19997040,0.00000287
-0.10000000,4.29992250,0.00000287
-0.10000000,4.40002340,0.00000279
-0.10000000,4.50010380,0.00000295
-0.10000000,4.59966280,0.00000290
-0.10000000,4.69975640,0.00000296
-0.10000000,4.79988480,0.00000286
-0.10000000,4.89997040,0.00000294
-0.10000000,5.00006250,0.00000296
0.00000000,-0.00015898,-0.00000001
0.00000000,0.09991336,0.00000628
0.00000000,0.19998195,0.00000763
0.00000000,0.30005897,0.00000806
0.00000000,0.40014441,0.00000843
0.00000000,0.49971023,0.00000868
0.00000000,0.59985138,0.00000889
0.00000000,0.69994145,0.00000911
0.00000000,0.80000779,0.00000920
0.00000000,0.90008754,0.00000942
0.00000000,1.00017390,0.00000961
0.00000000,1.09981450,0.00000968
0.00000000,1.19989370,0.00000985
0.00000000,1.29997230,0.00000998
0.00000000,1.40004490,0.00001012
0.00000000,1.50013940,0.00001020
0.00000000,1.60026640,0.00001032
0.00000000,1.69983710,0.00001038
0.00000000,1.79992010,0.00001045
0.00000000,1.89999650,0.00001057
0.00000000,2.00007560,0.00001062
0.00000000,2.10015330,0.00001073
0.00000000,2.20017500,0.00001083
0.00000000,2.29974860,0.00001089
0.00000000,2.39980550,0.00001098
0.00000000,2.49989490,0.00001102
0.00000000,2.59998180,0.00001109
0.00000000,2.70012440,0.00001123
0.00000000,2.80021130,0.00001123
0.00000000,2.89976770,0.00001127
0.00000000,2.99984960,0.00001138
0.00000000,3.09993120,0.00001146
0.00000000,3.20008160,0.00001149
0.00000000,3.30015690,0.00001153
0.00000000,3.39972890,0.00001158
0.00000000,3.49980660,0.00001165
0.00000000,3.59989490,0.00001170
0.00000000,3.69997150,0.00001172
0.00000000,3.80011150,0.00001177
0.00000000,3.90020640,0.00001189
0.00000000,3.99975500,0.00001189
0.00000000,4.09982120,0.00001190
0.00000000,4.19991210,0.00001201
0.00000000,4.29986670,0.00001204
0.00000000,4.39997280,0.00001207
0.00000000,4.50004280,0.00001218
0.00000000,4.59960830,0.00001226
0.00000000,4.69969540,0.00001225
0.00000000,4.79983030,0.00001229
0.00000000,4.89991600,0.00001237
0.00000000,5.00000030,0.00001240
0.10000000,-0.00015739,-0.00000006
0.10000000,0.09986025,0.00001479
0.10000000,0.19990932,0.00002000
0.10000000,0.29997784,0.00002154
0.10000000,0.40006132,0.00002235
0.10000000,0.49962373,0.00002302
0.10000000,0.59976253,0.00002352
0.10000000,0.69984880,0.00002395
0.10000000,0.79991815,0.00002441
0.10000000,0.89999790,0.00002480
0.10000000,1.00008130,0.00002519
0.10000000,1.09971630,0.00002559
0.10000000,1.19980290,0.00002585
0.10000000,1.29988670,0.00002615
0.10000000,1.39995670,0.00002639
0.10000000,1.50003950,0.00002674
0.10000000,1.60016660,0.00002698
0.10000000,1.69973850,0.00002715
0.10000000,1.79982030,0.00002736
0.10000000,1.89988880,0.00002759
0.10000000,1.99997580,0.00002789
0.10000000,2.10005210,0.00002806
0.10000000,2.20007390,0.00002818
0.10000000,2.29964870,0.00002838
