Vgs,	Vds,	Ids
-1.00000000,-0.00015986,0.00000005
-1.00000000,0.09994904,-0.00000005
-1.00000000,0.20002814,-0.00000001
-1.00000000,0.30011053,0.00000001
-1.00000000,0.40019518,-0.00000001
-1.00000000,0.49975721,-0.00000003
-1.00000000,0.59989927,-0.00000002
-1.00000000,0.69999275,0.00000001
-1.00000000,0.80005948,-0.00000000
-1.00000000,0.90014002,0.00000003
-1.00000000,1.00022690,-0.00000000
-1.00000000,1.09986650,0.00000002
-1.00000000,1.19995330,0.00000002
-1.00000000,1.30003320,0.00000003
-1.00000000,1.40010720,-0.00000000
-1.00000000,1.50020170,0.00000005
-1.00000000,1.60032870,0.00000007
-1.00000000,1.69989680,0.00000004
-1.00000000,1.79998760,0.00000001
-1.00000000,1.90005610,-0.00000004
-1.00000000,2.00014560,0.00000007
-1.00000000,2.10022330,0.00000003
-1.00000000,2.20023730,0.00000004
-1.00000000,2.29981080,0.00000002
-1.00000000,2.39987420,0.00000002
-1.00000000,2.49996490,-0.00000002
-1.00000000,2.60004670,-0.00000001
-1.00000000,2.70019180,0.00000004
-1.00000000,2.80027620,0.00000004
-1.00000000,2.89983780,-0.00000000
-1.00000000,2.99991830,0.00000000
-1.00000000,3.10000250,0.00000003
-1.00000000,3.20015030,-0.00000004
-1.00000000,3.30022430,0.00000001
-1.00000000,3.39979760,0.00000000
-1.00000000,3.49987790,-0.00000004
-1.00000000,3.59996630,0.00000006
-1.00000000,3.70004410,0.00000004
-1.00000000,3.80018410,-0.00000002
-1.00000000,3.90027380,-0.00000006
-1.00000000,3.99982370,0.00000003
-1.00000000,4.09989770,0.00000003
-1.00000000,4.19998600,0.00000000
-1.00000000,4.29993930,0.00000004
-1.00000000,4.40004670,-0.00000001
-1.00000000,4.50012060,-0.00000003
-1.00000000,4.59968090,0.00000009
-1.00000000,4.69977330,0.00000004
-1.00000000,4.79990690,0.00000008
-1.00000000,4.89998990,0.00000005
-1.00000000,5.00007550,0.00000004
-0.90000000,-0.00015903,0.00000005
-0.90000000,0.09995198,0.00000001
-0.90000000,0.20002932,0.00000000
-0.90000000,0.30011000,0.00000000
-0.90000000,0.40019623,0.00000004
-0.90000000,0.49976048,0.00000003
-0.90000000,0.59989862,0.00000000
-0.90000000,0.69999497,0.00000003
-0.90000000,0.80006131,0.00000005
-0.90000000,0.90014093,-0.00000001
-0.90000000,1.00022910,0.00000005
-0.90000000,1.09987110,-0.00000001
-0.90000000,1.19995460,-0.00000001
-0.90000000,1.30003710,0.00000001
-0.90000000,1.40010590,-0.00000001
-0.90000000,1.50020420,0.00000000
-0.90000000,1.60032740,0.00000004
-0.90000000,1.69989930,0.00000004
-0.90000000,1.79998500,0.00000001
-0.90000000,1.90005090,0.00000011
-0.90000000,2.00013920,0.00000005
-0.90000000,2.10021940,0.00000003
-0.90000000,2.20023730,0.00000005
-0.90000000,2.29981340,-0.00000000
-0.90000000,2.39987550,0.00000006
-0.90000000,2.49996360,-0.00000003
-0.90000000,2.60004410,0.00000007
-0.90000000,2.70019050,-0.00000003
-0.90000000,2.80027360,0.00000009
-0.90000000,2.89983260,-0.00000005
-0.90000000,2.99991570,-0.00000001
-0.90000000,3.10000640,0.00000000
-0.90000000,3.20014900,0.00000000
-0.90000000,3.30023080,-0.00000004
-0.90000000,3.39980150,0.00000006
-0.90000000,3.49988310,0.00000001
-0.90000000,3.59996760,0.00000002
-0.90000000,3.70004540,0.00000001
-0.90000000,3.80018410,-0.00000001
-0.90000000,3.90026860,0.00000007
-0.90000000,3.99982110,0.00000001
-0.90000000,4.09989900,-0.00000001
-0.90000000,4.19998860,0.00000003
-0.90000000,4.29994190,0.00000005
-0.90000000,4.40004410,-0.00000001
-0.90000000,4.50012060,0.00000001
-0.90000000,4.59968350,-0.00000000
-0.90000000,4.69977330,-0.00000001
-0.90000000,4.79990300,-0.00000003
-0.90000000,4.89999250,0.00000002
-0.90000000,5.00007810,0.00000003
-0.80000000,-0.00015811,0.00000005
-0.80000000,0.09995057,-0.00000002
-0.80000000,0.20002906,0.00000003
-0.80000000,0.30011013,0.00000002
-0.80000000,0.40019832,0.00000001
-0.80000000,0.49976100,0.00000007
-0.80000000,0.59990267,-0.00000000
-0.80000000,0.69999301,0.00000000
-0.80000000,0.80006209,0.00000002
-0.80000000,0.90014185,0.00000001
-0.80000000,1.00022970,0.00000000
-0.80000000,1.09987220,0.00000000
-0.80000000,1.19995620,0.00000000
-0.80000000,1.30003970,0.00000001
-0.80000000,1.40010850,0.00000001
-0.80000000,1.50020170,-0.00000000
-0.80000000,1.60032740,0.00000001
-0.80000000,1.69989810,0.00000004
-0.80000000,1.79998240,0.00000005
-0.80000000,1.90005610,0.00000005
-0.80000000,2.00014300,0.00000003
-0.80000000,2.10022200,0.00000001
-0.80000000,2.20023860,0.00000006
-0.80000000,2.29981470,0.00000001
-0.80000000,2.39986900,0.00000001
-0.80000000,2.49996230,0.00000002
-0.80000000,2.60004930,-0.00000001
-0.80000000,2.70018790,0.00000006
-0.80000000,2.80027360,0.00000003
-0.80000000,2.89983260,0.00000001
-0.80000000,2.99991570,0.00000006
-0.80000000,3.10000120,0.00000004
-0.80000000,3.20015290,0.00000003
-0.80000000,3.30023210,0.00000001
-0.80000000,3.39980020,0.00000002
-0.80000000,3.49988180,0.00000002
-0.80000000,3.59996500,0.00000001
-0.80000000,3.70004540,0.00000000
-0.80000000,3.80018020,-0.00000000
-0.80000000,3.90027380,0.00000004
-0.80000000,3.99981850,-0.00000004
-0.80000000,4.09989640,0.00000002
-0.80000000,4.19998470,-0.00000000
-0.80000000,4.29994190,0.00000002
-0.80000000,4.40004540,-0.00000002
-0.80000000,4.50012190,-0.00000003
-0.80000000,4.59968220,0.00000002
-0.80000000,4.69977460,0.00000005
-0.80000000,4.79990170,0.00000004
-0.80000000,4.89998990,0.00000004
-0.80000000,5.00007290,0.00000003
-0.70000000,-0.00015867,0.00000001
-0.70000000,0.09995145,-0.00000003
-0.70000000,0.20002723,0.00000005
-0.70000000,0.30010948,-0.00000001
-0.70000000,0.40019728,0.00000007
-0.70000000,0.49975708,0.00000000
-0.70000000,0.59990084,0.00000005
-0.70000000,0.69999262,-0.00000001
-0.70000000,0.80006392,-0.00000003
-0.70000000,0.90014237,0.00000007
-0.70000000,1.00022620,0.00000008
-0.70000000,1.09987350,0.00000006
-0.70000000,1.19995350,0.00000002
-0.70000000,1.30003970,-0.00000001
-0.70000000,1.40010970,0.00000008
-0.70000000,1.50020170,-0.00000001
-0.70000000,1.60032610,0.00000002
-0.70000000,1.69989680,0.00000004
-0.70000000,1.79998240,0.00000004
-0.70000000,1.90005480,0.00000004
-0.70000000,2.00014050,0.00000001
-0.70000000,2.10021680,-0.00000001
-0.70000000,2.20024250,0.00000002
-0.70000000,2.29981080,0.00000002
-0.70000000,2.39987550,-0.00000001
-0.70000000,2.49995840,0.00000000
-0.70000000,2.60005180,0.00000002
-0.70000000,2.70019180,-0.00000001
-0.70000000,2.80027620,0.00000000
-0.70000000,2.89983390,0.00000004
-0.70000000,2.99991570,0.00000006
-0.70000000,3.09999990,0.00000003
-0.70000000,3.20015160,0.00000007
-0.70000000,3.30022950,0.00000000
-0.70000000,3.39979630,0.00000006
-0.70000000,3.49988310,0.00000002
-0.70000000,3.59996760,0.00000008
-0.70000000,3.70004800,0.00000007
-0.70000000,3.80018410,0.00000002
-0.70000000,3.90027250,0.00000006
-0.70000000,3.99982240,0.00000002
-0.70000000,4.09990160,0.00000002
-0.70000000,4.19998210,-0.00000001
-0.70000000,4.29993930,0.00000004
-0.70000000,4.40004020,0.00000000
-0.70000000,4.50011940,0.00000000
-0.70000000,4.59968610,-0.00000001
-0.70000000,4.69977460,-0.00000003
-0.70000000,4.79990170,0.00000005
-0.70000000,4.89998990,0.00000003
-0.70000000,5.00007290,-0.00000001
-0.60000000,-0.00015788,-0.00000000
-0.60000000,0.09994852,-0.00000002
-0.60000000,0.20002958,0.00000003
-0.60000000,0.30010856,0.00000006
-0.60000000,0.40019741,0.00000002
-0.60000000,0.49976153,-0.00000001
-0.60000000,0.59990032,0.00000003
-0.60000000,0.69999458,0.00000002
-0.60000000,0.80006209,0.00000000
-0.60000000,0.90014159,0.00000010
-0.60000000,1.00022590,0.00000007
-0.60000000,1.09987320,0.00000002
-0.60000000,1.19995490,0.00000002
-0.60000000,1.30003320,0.00000003
-0.60000000,1.40010460,0.00000003
-0.60000000,1.50020300,0.00000004
-0.60000000,1.60032870,-0.00000000
-0.60000000,1.69989930,0.00000009
-0.60000000,1.79998240,-0.00000002
-0.60000000,1.90005350,0.00000002
-0.60000000,2.00014820,-0.00000002
-0.60000000,2.10021810,0.00000003
-0.60000000,2.20023990,-0.00000002
-0.60000000,2.29981080,0.00000001
-0.60000000,2.39987030,0.00000001
-0.60000000,2.49996230,0.00000004
-0.60000000,2.60004670,0.00000003
-0.60000000,2.70019440,0.00000005
-0.60000000,2.80027620,-0.00000003
-0.60000000,2.89983650,0.00000001
-0.60000000,2.99991050,0.00000002
-0.60000000,3.10000250,-0.00000004
-0.60000000,3.20015420,-0.00000001
-0.60000000,3.30022820,-0.00000001
-0.60000000,3.39979630,-0.00000003
-0.60000000,3.49988050,0.00000002
-0.60000000,3.59996370,0.00000007
-0.60000000,3.70004410,0.00000001
-0.60000000,3.80018410,0.00000001
-0.60000000,3.90027770,-0.00000003
-0.60000000,3.99982370,0.00000004
-0.60000000,4.09990160,0.00000003
-0.60000000,4.19998470,0.00000005
-0.60000000,4.29993930,0.00000001
-0.60000000,4.40004800,0.00000003
-0.60000000,4.50011940,-0.00000002
-0.60000000,4.59968090,0.00000003
-0.60000000,4.69977840,0.00000003
-0.60000000,4.79990170,0.00000000
-0.60000000,4.89999120,0.00000001
-0.60000000,5.00007810,0.00000003
-0.50000000,-0.00015786,0.00000003
-0.50000000,0.09994844,0.00000004
-0.50000000,0.20002723,-0.00000001
-0.50000000,0.30010974,0.00000005
-0.50000000,0.40019571,0.00000005
-0.50000000,0.49976192,0.00000001
-0.50000000,0.59990019,0.00000005
-0.50000000,0.69999275,-0.00000000
-0.50000000,0.80005961,0.00000004
-0.50000000,0.90014224,0.00000002
-0.50000000,1.00022950,0.00000010
-0.50000000,1.09987230,0.00000002
-0.50000000,1.19995630,0.00000002
-0.50000000,1.30003580,0.00000003
-0.50000000,1.40010970,0.00000007
-0.50000000,1.50020300,0.00000003
-0.50000000,1.60032870,0.00000005
-0.50000000,1.69989680,-0.00000000
-0.50000000,1.79998240,-0.00000000
-0.50000000,1.90005480,-0.00000002
-0.50000000,2.00014170,-0.00000001
-0.50000000,2.10021810,0.00000006
-0.50000000,2.20023990,0.00000002
-0.50000000,2.29981340,0.00000001
-0.50000000,2.39986900,0.00000005
-0.50000000,2.49996230,0.00000005
-0.50000000,2.60004930,0.00000004
-0.50000000,2.70019050,0.00000007
-0.50000000,2.80027490,-0.00000001
-0.50000000,2.89983390,0.00000009
-0.50000000,2.99991440,0.00000001
-0.50000000,3.10000380,0.00000005
-0.50000000,3.20014900,-0.00000002
-0.50000000,3.30023340,0.00000002
-0.50000000,3.39979500,0.00000001
-0.50000000,3.49988050,0.00000001
-0.50000000,3.59996880,-0.00000001
-0.50000000,3.70004280,0.00000005
-0.50000000,3.80018280,-0.00000002
-0.50000000,3.90027510,0.00000006
-0.50000000,3.99982370,-0.00000004
-0.50000000,4.09989640,0.00000006
-0.50000000,4.19998860,0.00000005
-0.50000000,4.29993540,0.00000004
-0.50000000,4.40004410,0.00000001
-0.50000000,4.50011940,-0.00000001
-0.50000000,4.59968350,0.00000001
-0.50000000,4.69977710,0.00000000
-0.50000000,4.79990430,0.00000005
-0.50000000,4.89998730,0.00000001
-0.50000000,5.00007420,0.00000001
-0.40000000,-0.00015614,-0.00000000
-0.40000000,0.09995152,0.00000000
-0.40000000,0.20002566,0.00000003
-0.40000000,0.30011210,0.00000006
-0.40000000,0.40019937,0.00000004
-0.40000000,0.49976153,-0.00000002
-0.40000000,0.59990150,0.00000000
-0.40000000,0.69999170,0.00000002
-0.40000000,0.80006563,0.00000000
-0.40000000,0.90014329,0.00000005
-0.40000000,1.00023010,-0.00000002
-0.40000000,1.09987350,0.00000001
-0.40000000,1.19995510,0.00000007
-0.40000000,1.30003580,0.00000006
-0.40000000,1.40010970,0.00000004
-0.40000000,1.50020300,-0.00000001
-0.40000000,1.60032480,0.00000002
-0.40000000,1.69989810,0.00000005
-0.40000000,1.79998240,0.00000007
-0.40000000,1.90005740,0.00000002
-0.40000000,2.00014050,0.00000002
-0.40000000,2.10021810,0.00000003
-0.40000000,2.20023860,0.00000004
-0.40000000,2.29981210,-0.00000000
-0.40000000,2.39987030,0.00000001
-0.40000000,2.49996360,0.00000004
-0.40000000,2.60004540,0.00000003
-0.40000000,2.70018920,0.00000001
-0.40000000,2.80027100,-0.00000000
-0.40000000,2.89983650,0.00000001
-0.40000000,2.99992220,0.00000006
-0.40000000,3.10000510,0.00000000
-0.40000000,3.20014900,0.00000002
-0.40000000,3.30023080,0.00000002
-0.40000000,3.39979890,0.00000003
-0.40000000,3.49987920,0.00000001
-0.40000000,3.59996760,0.00000000
-0.40000000,3.70004670,0.00000008
-0.40000000,3.80018280,0.00000001
-0.40000000,3.90027380,0.00000002
-0.40000000,3.99981980,0.00000001
-0.40000000,4.09989640,-0.00000001
-0.40000000,4.19998470,0.00000001
-0.40000000,4.29994320,0.00000000
-0.40000000,4.40004150,-0.00000000
-0.40000000,4.50011550,0.00000004
-0.40000000,4.59968350,0.00000003
-0.40000000,4.69977330,0.00000008
-0.40000000,4.79990170,0.00000004
-0.40000000,4.89998860,0.00000003
-0.40000000,5.00007290,0.00000003
-0.30000000,-0.00015804,0.00000000
-0.30000000,0.09994784,0.00000013
-0.30000000,0.20002840,0.00000011
-0.30000000,0.30011026,0.00000008
-0.30000000,0.40019479,0.00000012
-0.30000000,0.49976048,0.00000009
-0.30000000,0.59990293,0.00000014
-0.30000000,0.69999432,0.00000013
-0.30000000,0.80006366,0.00000012
-0.30000000,0.90014224,0.00000012
-0.30000000,1.00022630,0.00000010
-0.30000000,1.09986930,0.00000012
-0.30000000,1.19995320,0.00000016
-0.30000000,1.30003320,0.00000011
-0.30000000,1.40010590,0.00000019
-0.30000000,1.50020040,0.00000013
-0.30000000,1.60032740,0.00000014
-0.30000000,1.69989290,0.00000016
-0.30000000,1.79998760,0.00000009
-0.30000000,1.90005220,0.00000017
-0.30000000,2.00014050,0.00000014
-0.30000000,2.10021680,0.00000016
-0.30000000,2.20023990,0.00000017
-0.30000000,2.29980700,0.00000013
-0.30000000,2.39987030,0.00000021
-0.30000000,2.49996100,0.00000016
-0.30000000,2.60004410,0.00000013
-0.30000000,2.70018920,0.00000014
-0.30000000,2.80027620,0.00000016
-0.30000000,2.89983390,0.00000012
-0.30000000,2.99991180,0.00000014
-0.30000000,3.10000120,0.00000012
-0.30000000,3.20015030,0.00000015
-0.30000000,3.30022690,0.00000014
-0.30000000,3.39979240,0.00000011
-0.30000000,3.49988440,0.00000013
-0.30000000,3.59996240,0.00000013
-0.30000000,3.70004280,0.00000012
-0.30000000,3.80018020,0.00000017
-0.30000000,3.90027120,0.00000013
-0.30000000,3.99982240,0.00000010
-0.30000000,4.09989900,0.00000013
-0.30000000,4.19998340,0.00000013
-0.30000000,4.29993930,0.00000017
-0.30000000,4.40004540,0.00000012
-0.30000000,4.50012060,0.00000015
-0.30000000,4.59967580,0.00000018
-0.30000000,4.69977330,0.00000009
-0.30000000,4.79990560,0.00000018
-0.30000000,4.89998860,0.00000007
-0.30000000,5.00007810,0.00000011
-0.20000000,-0.00015572,0.00000003
-0.20000000,0.09994580,0.00000072
-0.20000000,0.20002238,0.00000078
-0.20000000,0.30010595,0.00000083
-0.20000000,0.40019257,0.00000084
-0.20000000,0.49975564,0.00000089
-0.20000000,0.59990019,0.00000087
-0.20000000,0.69998790,0.00000092
-0.20000000,0.80005686,0.00000091
-0.20000000,0.90013884,0.00000089
-0.20000000,1.00022280,0.00000092
-0.20000000,1.09986620,0.00000101
-0.20000000,1.19995160,0.00000099
-0.20000000,1.30003190,0.00000099
-0.20000000,1.40010200,0.00000097
-0.20000000,1.50020040,0.00000100
-0.20000000,1.60032220,0.00000097
-0.20000000,1.69989550,0.00000099
-0.20000000,1.79997720,0.00000102
-0.20000000,1.90004700,0.00000099
-0.20000000,2.00013530,0.00000104
-0.20000000,2.10021160,0.00000103
-0.20000000,2.20023340,0.00000109
-0.20000000,2.29981210,0.00000108
-0.20000000,2.39986770,0.00000097
-0.20000000,2.49995590,0.00000101
-0.20000000,2.60003890,0.00000106
-0.20000000,2.70018540,0.00000105
-0.20000000,2.80026970,0.00000100
-0.20000000,2.89982870,0.00000109
-0.20000000,2.99990920,0.00000104
-0.20000000,3.09999210,0.00000101
-0.20000000,3.20014510,0.00000101
-0.20000000,3.30022040,0.00000108
-0.20000000,3.39979110,0.00000110
-0.20000000,3.49987920,0.00000107
-0.20000000,3.59996240,0.00000110
-0.20000000,3.70004020,0.00000117
-0.20000000,3.80017760,0.00000105
-0.20000000,3.90026860,0.00000107
-0.20000000,3.99981850,0.00000110
-0.20000000,4.09989510,0.00000102
-0.20000000,4.19997820,0.00000107
-0.20000000,4.29993540,0.00000108
-0.20000000,4.40003630,0.00000110
-0.20000000,4.50011160,0.00000107
-0.20000000,4.59967710,0.00000105
-0.20000000,4.69976290,0.00000108
-0.20000000,4.79989650,0.00000109
-0.20000000,4.89998860,0.00000112
-0.20000000,5.00007420,0.00000114
-0.10000000,-0.00016009,0.00000001
-0.10000000,0.09993683,0.00000270
-0.10000000,0.20000812,0.00000326
-0.10000000,0.30008867,0.00000334
-0.10000000,0.40017425,0.00000345
-0.10000000,0.49973745,0.00000346
-0.10000000,0.59988134,0.00000357
-0.10000000,0.69996919,0.00000368
-0.10000000,0.80004534,0.00000367
-0.10000000,0.90011790,0.00000369
-0.10000000,1.00020100,0.00000376
-0.10000000,1.09984810,0.00000377
-0.10000000,1.19993140,0.00000379
-0.10000000,1.30001250,0.00000380
-0.10000000,1.40008770,0.00000389
-0.10000000,1.50017570,0.00000393
-0.10000000,1.60030400,0.00000387
-0.10000000,1.69987080,0.00000390
-0.10000000,1.79995900,0.00000398
-0.10000000,1.90002890,0.00000401
-0.10000000,2.00011970,0.00000397
-0.10000000,2.10019470,0.00000403
-0.10000000,2.20021520,0.00000408
-0.10000000,2.29979270,0.00000402
-0.10000000,2.39984960,0.00000403
-0.10000000,2.49993900,0.00000408
-0.10000000,2.60002070,0.00000403
-0.10000000,2.70016720,0.00000409
-0.10000000,2.80024630,0.00000408
-0.10000000,2.89981180,0.00000416
-0.10000000,2.99989240,0.00000413
-0.10000000,3.09997660,0.00000416
-0.10000000,3.20012560,0.00000415
-0.10000000,3.30020230,0.00000420
-0.10000000,3.39977430,0.00000420
-0.10000000,3.49985330,0.00000422
-0.10000000,3.59994290,0.00000420
-0.10000000,3.70002080,0.00000424
-0.10000000,3.80015810,0.00000424
-0.10000000,3.90025180,0.00000418
-0.10000000,3.99980040,0.00000417
-0.10000000,4.09987560,0.00000427
-0.10000000,4.19996130,0.00000432
-0.10000000,4.29991470,0.00000428
-0.10000000,4.40001820,0.00000427
-0.10000000,4.50009600,0.00000429
-0.10000000,4.59966150,0.00000427
-0.10000000,4.69975120,0.00000435
-0.10000000,4.79987570,0.00000425
-0.10000000,4.89996650,0.00000432
-0.10000000,5.00005220,0.00000433
0.00000000,-0.00015664,-0.00000003
0.00000000,0.09991529,0.00000600
0.00000000,0.19998287,0.00000801
0.00000000,0.30006054,0.00000847
0.00000000,0.40014611,0.00000865
0.00000000,0.49970918,0.00000879
0.00000000,0.59984955,0.00000895
0.00000000,0.69993923,0.00000904
0.00000000,0.80000582,0.00000913
0.00000000,0.90008833,0.00000924
0.00000000,1.00017270,0.00000929
0.00000000,1.09981590,0.00000943
0.00000000,1.19990040,0.00000943
0.00000000,1.29997870,0.00000953
0.00000000,1.40005400,0.00000963
0.00000000,1.50014590,0.00000966
0.00000000,1.60027030,0.00000966
0.00000000,1.69984100,0.00000970
0.00000000,1.79992400,0.00000978
0.00000000,1.89999780,0.00000983
0.00000000,2.00008340,0.00000984
0.00000000,2.10015970,0.00000989
0.00000000,2.20018020,0.00000989
0.00000000,2.29975640,0.00000994
0.00000000,2.39981460,0.00000995
0.00000000,2.49990010,0.00001000
0.00000000,2.59998830,0.00001005
0.00000000,2.70013350,0.00001008
0.00000000,2.80021780,0.00001009
0.00000000,2.89977160,0.00001010
0.00000000,2.99985600,0.00001020
0.00000000,3.09994030,0.00001020
0.00000000,3.20009190,0.00001019
0.00000000,3.30016340,0.00001017
0.00000000,3.39973800,0.00001027
0.00000000,3.49981960,0.00001027
0.00000000,3.59990270,0.00001029
0.00000000,3.69998180,0.00001032
0.00000000,3.80011920,0.00001034
0.00000000,3.90021540,0.00001038
0.00000000,3.99976540,0.00001035
0.00000000,4.09983930,0.00001034
0.00000000,4.19992240,0.00001040
0.00000000,4.29987710,0.00001049
0.00000000,4.39998060,0.00001048
0.00000000,4.50005840,0.00001054
0.00000000,4.59961610,0.00001053
0.00000000,4.69970840,0.00001060
0.00000000,4.79984460,0.00001056
0.00000000,4.89992890,0.00001063
0.00000000,5.00000940,0.00001064
0.10000000,-0.00016024,-0.00000001
0.10000000,0.09989362,0.00000986
0.10000000,0.19994282,0.00001485
0.10000000,0.30001186,0.00001645
0.10000000,0.40009704,0.00001690
0.10000000,0.49965841,0.00001715
0.10000000,0.59979890,0.00001744
0.10000000,0.69989159,0.00001763
0.10000000,0.79995976,0.00001775
0.10000000,0.90003926,0.00001792
0.10000000,1.00012170,0.00001808
0.10000000,1.09976340,0.00001817
0.10000000,1.19984730,0.00001833
0.10000000,1.29992950,0.00001842
0.10000000,1.40000080,0.00001853
0.10000000,1.50009270,0.00001866
0.10000000,1.60021840,0.00001872
0.10000000,1.69978390,0.00001878
0.10000000,1.79987340,0.00001887
0.10000000,1.89994460,0.00001891
0.10000000,2.00003150,0.00001899
0.10000000,2.10010660,0.00001903
0.10000000,2.20012700,0.00001914
0.10000000,2.29969930,0.00001923
0.10000000,2.39975750,0.00001915
0.10000000,2.49985080,0.00001928
