Vgs,	Vds,	Ids
-5.00000000,-4.98332400,-0.00283042
-5.00000000,-4.88326620,-0.00282695
-5.00000000,-4.78320070,-0.00282347
-5.00000000,-4.68361490,-0.00281973
-5.00000000,-4.58355310,-0.00281589
-5.00000000,-4.48349650,-0.00281185
-5.00000000,-4.38344900,-0.00280764
-5.00000000,-4.28337830,-0.00280310
-5.00000000,-4.18345120,-0.00279833
-5.00000000,-4.08391830,-0.00279335
-5.00000000,-3.98387350,-0.00278789
-5.00000000,-3.88384540,-0.00278197
-5.00000000,-3.78379520,-0.00277553
-5.00000000,-3.68370230,-0.00276842
-5.00000000,-3.58367310,-0.00276057
-5.00000000,-3.48415970,-0.00275183
-5.00000000,-3.38414850,-0.00274182
-5.00000000,-3.28411780,-0.00273046
-5.00000000,-3.18411940,-0.00271750
-5.00000000,-3.08406280,-0.00270263
-5.00000000,-2.98407880,-0.00268532
-5.00000000,-2.88463800,-0.00266566
-5.00000000,-2.78469300,-0.00264289
-5.00000000,-2.68476190,-0.00261667
-5.00000000,-2.58479860,-0.00258672
-5.00000000,-2.48491160,-0.00255287
-5.00000000,-2.38504830,-0.00251465
-5.00000000,-2.28574250,-0.00247220
-5.00000000,-2.18594500,-0.00242476
-5.00000000,-2.08623590,-0.00237242
-5.00000000,-1.98649680,-0.00231498
-5.00000000,-1.88677960,-0.00225224
-5.00000000,-1.78710290,-0.00218425
-5.00000000,-1.68797840,-0.00211113
-5.00000000,-1.58834980,-0.00203221
-5.00000000,-1.48871560,-0.00194772
-5.00000000,-1.38915300,-0.00185769
-5.00000000,-1.28964340,-0.00176195
-5.00000000,-1.19015580,-0.00166067
-5.00000000,-1.09121570,-0.00155418
-5.00000000,-0.99171636,-0.00144143
-5.00000000,-0.89232452,-0.00132308
-5.00000000,-0.79297060,-0.00119897
-5.00000000,-0.69366006,-0.00106917
-5.00000000,-0.59436599,-0.00093367
-5.00000000,-0.49556874,-0.00079299
-5.00000000,-0.39634446,-0.00064602
-5.00000000,-0.29715711,-0.00049327
-5.00000000,-0.19800578,-0.00033457
-5.00000000,-0.09888894,-0.00017004
-5.00000000,-0.00015836,-0.00000025
-4.90000000,-4.98399580,-0.00271682
-4.90000000,-4.88392890,-0.00271300
-4.90000000,-4.78387240,-0.00270961
-4.90000000,-4.68428150,-0.00270605
-4.90000000,-4.58421310,-0.00270233
-4.90000000,-4.48416040,-0.00269858
-4.90000000,-4.38411040,-0.00269452
-4.90000000,-4.28403060,-0.00269033
-4.90000000,-4.18411520,-0.00268590
-4.90000000,-4.08456930,-0.00268117
-4.90000000,-3.98452710,-0.00267620
-4.90000000,-3.88449520,-0.00267080
-4.90000000,-3.78443460,-0.00266502
-4.90000000,-3.68434040,-0.00265864
-4.90000000,-3.58430980,-0.00265151
-4.90000000,-3.48478730,-0.00264371
-4.90000000,-3.38476840,-0.00263489
-4.90000000,-3.28473380,-0.00262482
-4.90000000,-3.18472630,-0.00261342
-4.90000000,-3.08465540,-0.00260026
-4.90000000,-2.98466240,-0.00258509
-4.90000000,-2.88520990,-0.00256751
-4.90000000,-2.78524800,-0.00254728
-4.90000000,-2.68530780,-0.00252377
-4.90000000,-2.58532520,-0.00249682
-4.90000000,-2.48541740,-0.00246604
-4.90000000,-2.38553590,-0.00243113
-4.90000000,-2.28621190,-0.00239205
-4.90000000,-2.18639500,-0.00234808
-4.90000000,-2.08666000,-0.00229933
-4.90000000,-1.98690660,-0.00224545
-4.90000000,-1.88715830,-0.00218645
-4.90000000,-1.78746990,-0.00212209
-4.90000000,-1.68831300,-0.00205269
-4.90000000,-1.58866620,-0.00197748
-4.90000000,-1.48901130,-0.00189664
-4.90000000,-1.38942270,-0.00181028
-4.90000000,-1.28989630,-0.00171821
-4.90000000,-1.19039050,-0.00162054
-4.90000000,-1.09142450,-0.00151764
-4.90000000,-0.99191134,-0.00140836
-4.90000000,-0.89249438,-0.00129355
-4.90000000,-0.79312304,-0.00117290
-4.90000000,-0.69379497,-0.00104654
-4.90000000,-0.59448114,-0.00091435
-4.90000000,-0.49566074,-0.00077712
-4.90000000,-0.39641957,-0.00063340
-4.90000000,-0.29720958,-0.00048380
-4.90000000,-0.19803719,-0.00032838
-4.90000000,-0.09890703,-0.00016697
-4.90000000,-0.00015696,-0.00000022
-4.80000000,-4.98465850,-0.00260330
-4.80000000,-4.88459810,-0.00259969
-4.80000000,-4.78452600,-0.00259645
-4.80000000,-4.68493900,-0.00259304
-4.80000000,-4.58487580,-0.00258962
-4.80000000,-4.48481410,-0.00258606
-4.80000000,-4.38476660,-0.00258231
-4.80000000,-4.28468550,-0.00257839
-4.80000000,-4.18475840,-0.00257432
-4.80000000,-4.08522040,-0.00257006
-4.80000000,-3.98517030,-0.00256542
-4.80000000,-3.88513840,-0.00256051
-4.80000000,-3.78507520,-0.00255521
-4.80000000,-3.68497970,-0.00254944
-4.80000000,-3.58494530,-0.00254309
-4.80000000,-3.48541630,-0.00253616
-4.80000000,-3.38539340,-0.00252830
-4.80000000,-3.28534850,-0.00251946
-4.80000000,-3.18533190,-0.00250940
-4.80000000,-3.08525200,-0.00249784
-4.80000000,-2.98524990,-0.00248445
-4.80000000,-2.88578310,-0.00246908
-4.80000000,-2.78580950,-0.00245117
-4.80000000,-2.68585120,-0.00243030
-4.80000000,-2.58585040,-0.00240615
-4.80000000,-2.48593100,-0.00237844
-4.80000000,-2.38602870,-0.00234672
-4.80000000,-2.28668660,-0.00231099
-4.80000000,-2.18684890,-0.00227048
-4.80000000,-2.08709180,-0.00222530
-4.80000000,-1.98731000,-0.00217506
-4.80000000,-1.88754860,-0.00211976
-4.80000000,-1.78783560,-0.00205912
-4.80000000,-1.68866060,-0.00199346
-4.80000000,-1.58899300,-0.00192193
-4.80000000,-1.48931990,-0.00184485
-4.80000000,-1.38971190,-0.00176214
-4.80000000,-1.29015690,-0.00167377
-4.80000000,-1.19062530,-0.00157976
-4.80000000,-1.09164240,-0.00148043
-4.80000000,-0.99210317,-0.00137487
-4.80000000,-0.89267260,-0.00126352
-4.80000000,-0.79328151,-0.00114644
-4.80000000,-0.69393054,-0.00102357
-4.80000000,-0.59459145,-0.00089480
-4.80000000,-0.49575783,-0.00076083
-4.80000000,-0.39649795,-0.00062046
-4.80000000,-0.29726899,-0.00047425
-4.80000000,-0.19808129,-0.00032199
-4.80000000,-0.09892688,-0.00016383
-4.80000000,-0.00015717,-0.00000031
-4.70000000,-4.98531600,-0.00249118
-4.70000000,-4.88524910,-0.00248777
-4.70000000,-4.78518350,-0.00248468
-4.70000000,-4.68559260,-0.00248152
-4.70000000,-4.58552560,-0.00247827
-4.70000000,-4.48546250,-0.00247495
-4.70000000,-4.38541250,-0.00247141
-4.70000000,-4.28533260,-0.00246784
-4.70000000,-4.18540810,-0.00246410
-4.70000000,-4.08586100,-0.00246006
-4.70000000,-3.98581620,-0.00245585
-4.70000000,-3.88578030,-0.00245140
-4.70000000,-3.78571720,-0.00244652
-4.70000000,-3.68561520,-0.00244133
-4.70000000,-3.58557170,-0.00243566
-4.70000000,-3.48604400,-0.00242945
-4.70000000,-3.38601460,-0.00242241
-4.70000000,-3.28596840,-0.00241462
-4.70000000,-3.18594400,-0.00240584
-4.70000000,-3.08585500,-0.00239566
-4.70000000,-2.98584120,-0.00238400
-4.70000000,-2.88636020,-0.00237054
-4.70000000,-2.78637890,-0.00235474
-4.70000000,-2.68640240,-0.00233632
-4.70000000,-2.58638470,-0.00231484
-4.70000000,-2.48645100,-0.00229015
-4.70000000,-2.38652930,-0.00226154
-4.70000000,-2.28715990,-0.00222907
-4.70000000,-2.18730930,-0.00219208
-4.70000000,-2.08753150,-0.00215040
-4.70000000,-1.98773140,-0.00210378
-4.70000000,-1.88794550,-0.00205210
-4.70000000,-1.78821430,-0.00199529
-4.70000000,-1.68901460,-0.00193335
-4.70000000,-1.58931990,-0.00186566
-4.70000000,-1.48962340,-0.00179227
-4.70000000,-1.38999470,-0.00171333
-4.70000000,-1.29041890,-0.00162876
-4.70000000,-1.19087430,-0.00153842
-4.70000000,-1.09186020,-0.00144280
-4.70000000,-0.99230613,-0.00134078
-4.70000000,-0.89285279,-0.00123307
-4.70000000,-0.79343697,-0.00111958
-4.70000000,-0.69406729,-0.00100020
-4.70000000,-0.59471393,-0.00087497
-4.70000000,-0.49585519,-0.00074444
-4.70000000,-0.39657529,-0.00060746
-4.70000000,-0.29732382,-0.00046446
-4.70000000,-0.19811793,-0.00031561
-4.70000000,-0.09894815,-0.00016069
-4.70000000,-0.00015980,-0.00000023
-4.60000000,-4.98595790,-0.00238056
-4.60000000,-4.88590010,-0.00237739
-4.60000000,-4.78583200,-0.00237446
-4.60000000,-4.68623970,-0.00237151
-4.60000000,-4.58617270,-0.00236847
-4.60000000,-4.48611090,-0.00236529
-4.60000000,-4.38605310,-0.00236204
-4.60000000,-4.28597590,-0.00235864
-4.60000000,-4.18604620,-0.00235507
-4.60000000,-4.08650290,-0.00235144
-4.60000000,-3.98644770,-0.00234763
-4.60000000,-3.88641450,-0.00234344
-4.60000000,-3.78634350,-0.00233906
-4.60000000,-3.68624030,-0.00233427
-4.60000000,-3.58619800,-0.00232920
-4.60000000,-3.48665870,-0.00232362
-4.60000000,-3.38662540,-0.00231746
-4.60000000,-3.28657140,-0.00231059
-4.60000000,-3.18654840,-0.00230280
-4.60000000,-3.08645550,-0.00229393
-4.60000000,-2.98642610,-0.00228370
-4.60000000,-2.88694640,-0.00227200
-4.60000000,-2.78694300,-0.00225818
-4.60000000,-2.68695220,-0.00224212
-4.60000000,-2.58692290,-0.00222325
-4.60000000,-2.48696580,-0.00220126
-4.60000000,-2.38703120,-0.00217559
-4.60000000,-2.28764880,-0.00214638
-4.60000000,-2.18777490,-0.00211268
-4.60000000,-2.08797500,-0.00207460
-4.60000000,-1.98815550,-0.00203161
-4.60000000,-1.88834490,-0.00198367
-4.60000000,-1.78859300,-0.00193052
-4.60000000,-1.68937260,-0.00187236
-4.60000000,-1.58965570,-0.00180847
-4.60000000,-1.48993720,-0.00173897
-4.60000000,-1.39028900,-0.00166380
-4.60000000,-1.29069120,-0.00158297
-4.60000000,-1.19111420,-0.00149634
-4.60000000,-1.09208980,-0.00140453
-4.60000000,-0.99250621,-0.00130624
-4.60000000,-0.89303141,-0.00120218
-4.60000000,-0.79360002,-0.00109230
-4.60000000,-0.69420809,-0.00097651
-4.60000000,-0.59482948,-0.00085480
-4.60000000,-0.49594980,-0.00072777
-4.60000000,-0.39665145,-0.00059419
-4.60000000,-0.29738415,-0.00045463
-4.60000000,-0.19815601,-0.00030911
-4.60000000,-0.09896259,-0.00015748
-4.60000000,-0.00015761,-0.00000022
-4.50000000,-4.98660370,-0.00227154
-4.50000000,-4.88653430,-0.00226857
-4.50000000,-4.78646610,-0.00226580
-4.50000000,-4.68686740,-0.00226302
-4.50000000,-4.58680290,-0.00226014
-4.50000000,-4.48673600,-0.00225720
-4.50000000,-4.38668080,-0.00225415
-4.50000000,-4.28660740,-0.00225105
-4.50000000,-4.18667250,-0.00224764
-4.50000000,-4.08712800,-0.00224423
-4.50000000,-3.98707020,-0.00224073
-4.50000000,-3.88703310,-0.00223696
-4.50000000,-3.78696990,-0.00223293
-4.50000000,-3.68685890,-0.00222860
-4.50000000,-3.58680880,-0.00222403
-4.50000000,-3.48727080,-0.00221897
-4.50000000,-3.38723240,-0.00221352
-4.50000000,-3.28718100,-0.00220742
-4.50000000,-3.18714230,-0.00220059
-4.50000000,-3.08703770,-0.00219280
-4.50000000,-2.98700840,-0.00218391
-4.50000000,-2.88751310,-0.00217371
-4.50000000,-2.78750710,-0.00216178
-4.50000000,-2.68750860,-0.00214769
-4.50000000,-2.58745850,-0.00213117
-4.50000000,-2.48749240,-0.00211192
-4.50000000,-2.38753950,-0.00208928
-4.50000000,-2.28813770,-0.00206311
-4.50000000,-2.18823920,-0.00203277
-4.50000000,-2.08842370,-0.00199807
-4.50000000,-1.98858090,-0.00195863
-4.50000000,-1.88875340,-0.00191435
-4.50000000,-1.78897940,-0.00186497
-4.50000000,-1.68973050,-0.00181067
-4.50000000,-1.58999420,-0.00175057
-4.50000000,-1.49024980,-0.00168496
-4.50000000,-1.39058080,-0.00161362
-4.50000000,-1.29096100,-0.00153653
-4.50000000,-1.19136840,-0.00145386
-4.50000000,-1.09231410,-0.00136573
-4.50000000,-0.99271061,-0.00127117
-4.50000000,-0.89321357,-0.00117082
-4.50000000,-0.79375861,-0.00106466
-4.50000000,-0.69434719,-0.00095246
-4.50000000,-0.59494908,-0.00083443
-4.50000000,-0.49605174,-0.00071084
-4.50000000,-0.39672721,-0.00058078
-4.50000000,-0.29744172,-0.00044468
-4.50000000,-0.19819369,-0.00030251
-4.50000000,-0.09898392,-0.00015420
-4.50000000,-0.00015956,-0.00000023
-4.40000000,-4.98722360,-0.00216418
-4.40000000,-4.88715940,-0.00216135
-4.40000000,-4.78709380,-0.00215877
-4.40000000,-4.68749770,-0.00215611
-4.40000000,-4.58742930,-0.00215341
-4.40000000,-4.48736370,-0.00215065
-4.40000000,-4.38730070,-0.00214782
-4.40000000,-4.28722470,-0.00214488
-4.40000000,-4.18728860,-0.00214181
-4.40000000,-4.08774270,-0.00213863
-4.40000000,-3.98768750,-0.00213533
-4.40000000,-3.88764780,-0.00213182
-4.40000000,-3.78757420,-0.00212814
-4.40000000,-3.68746320,-0.00212422
-4.40000000,-3.58741320,-0.00212007
-4.40000000,-3.48787770,-0.00211560
-4.40000000,-3.38783150,-0.00211066
-4.40000000,-3.28777230,-0.00210530
-4.40000000,-3.18773240,-0.00209925
-4.40000000,-3.08762650,-0.00209244
-4.40000000,-2.98758420,-0.00208469
-4.40000000,-2.88808500,-0.00207592
-4.40000000,-2.78806990,-0.00206552
-4.40000000,-2.68805840,-0.00205336
-4.40000000,-2.58799540,-0.00203908
-4.40000000,-2.48801370,-0.00202223
-4.40000000,-2.38804270,-0.00200232
-4.40000000,-2.28862790,-0.00197911
-4.40000000,-2.18871120,-0.00195201
-4.40000000,-2.08887630,-0.00192070
-4.40000000,-1.98900750,-0.00188497
-4.40000000,-1.88915930,-0.00184426
-4.40000000,-1.78936330,-0.00179864
-4.40000000,-1.69009490,-0.00174814
-4.40000000,-1.59033790,-0.00169190
-4.40000000,-1.49057270,-0.00163007
-4.40000000,-1.39087650,-0.00156269
-4.40000000,-1.29123460,-0.00148957
-4.40000000,-1.19161600,-0.00141063
-4.40000000,-1.09254110,-0.00132630
-4.40000000,-0.99292051,-0.00123557
-4.40000000,-0.89340056,-0.00113911
-4.40000000,-0.79392441,-0.00103657
-4.40000000,-0.69449022,-0.00092811
-4.40000000,-0.59506869,-0.00081360
-4.40000000,-0.49614988,-0.00069365
-4.40000000,-0.39681175,-0.00056715
-4.40000000,-0.29749917,-0.00043454
-4.40000000,-0.19823570,-0.00029580
-4.40000000,-0.09900010,-0.00015086
-4.40000000,-0.00016011,-0.00000027
-4.30000000,-4.98784220,-0.00205854
-4.30000000,-4.88777280,-0.00205589
-4.30000000,-4.78770200,-0.00205346
-4.30000000,-4.68811630,-0.00205093
-4.30000000,-4.58804010,-0.00204850
-4.30000000,-4.48797580,-0.00204590
-4.30000000,-4.38791930,-0.00204324
-4.30000000,-4.28783430,-0.00204042
-4.30000000,-4.18790070,-0.00203755
-4.30000000,-4.08835350,-0.00203464
-4.30000000,-3.98829440,-0.00203153
-4.30000000,-3.88825340,-0.00202833
-4.30000000,-3.78818250,-0.00202498
-4.30000000,-3.68806880,-0.00202143
-4.30000000,-3.58801750,-0.00201766
-4.30000000,-3.48847430,-0.00201356
-4.30000000,-3.38842800,-0.00200918
-4.30000000,-3.28836370,-0.00200436
-4.30000000,-3.18831860,-0.00199900
-4.30000000,-3.08820620,-0.00199308
-4.30000000,-2.98816130,-0.00198633
-4.30000000,-2.88865180,-0.00197866
-4.30000000,-2.78863020,-0.00196973
-4.30000000,-2.68860960,-0.00195929
-4.30000000,-2.58853490,-0.00194692
-4.30000000,-2.48853760,-0.00193231
-4.30000000,-2.38855110,-0.00191506
-4.30000000,-2.28911040,-0.00189464
-4.30000000,-2.18918720,-0.00187072
-4.30000000,-2.08933020,-0.00184276
-4.30000000,-1.98944590,-0.00181042
-4.30000000,-1.88957820,-0.00177343
-4.30000000,-1.78975370,-0.00173152
-4.30000000,-1.69046580,-0.00168472
-4.30000000,-1.59068280,-0.00163239
-4.30000000,-1.49089170,-0.00157452
-4.30000000,-1.39117740,-0.00151102
-4.30000000,-1.29151210,-0.00144182
-4.30000000,-1.19187540,-0.00136680
-4.30000000,-1.09277580,-0.00128639
-4.30000000,-0.99313262,-0.00119952
-4.30000000,-0.89358978,-0.00110682
-4.30000000,-0.79408811,-0.00100807
-4.30000000,-0.69463586,-0.00090332
-4.30000000,-0.59519300,-0.00079251
-4.30000000,-0.49625365,-0.00067624
-4.30000000,-0.39688751,-0.00055328
-4.30000000,-0.29755976,-0.00042425
-4.30000000,-0.19827391,-0.00028905
-4.30000000,-0.09902001,-0.00014750
-4.30000000,-0.00015965,-0.00000022
-4.20000000,-4.98844270,-0.00195474
-4.20000000,-4.88838230,-0.00195220
-4.20000000,-4.78831020,-0.00194992
-4.20000000,-4.68871020,-0.00194760
-4.20000000,-4.58864190,-0.00194528
-4.20000000,-4.48857620,-0.00194282
-4.20000000,-4.38851710,-0.00194031
-4.20000000,-4.28842950,-0.00193777
-4.20000000,-4.18849460,-0.00193509
-4.20000000,-4.08894100,-0.00193234
-4.20000000,-3.98888450,-0.00192950
-4.20000000,-3.88884350,-0.00192654
-4.20000000,-3.78877250,-0.00192345
-4.20000000,-3.68865240,-0.00192018
-4.20000000,-3.58860370,-0.00191680
-4.20000000,-3.48905530,-0.00191302
-4.20000000,-3.38901160,-0.00190904
-4.20000000,-3.28894600,-0.00190482
-4.20000000,-3.18889440,-0.00190007
-4.20000000,-3.08877940,-0.00189484
-4.20000000,-2.98873190,-0.00188896
-4.20000000,-2.88921590,-0.00188233
-4.20000000,-2.78918130,-0.00187459
-4.20000000,-2.68915430,-0.00186568
-4.20000000,-2.58907300,-0.00185506
-4.20000000,-2.48906020,-0.00184252
-4.20000000,-2.38906460,-0.00182762
-4.20000000,-2.28961740,-0.00180989
-4.20000000,-2.18966570,-0.00178885
-4.20000000,-2.08978930,-0.00176408
-4.20000000,-1.98988290,-0.00173516
-4.20000000,-1.88999190,-0.00170174
-4.20000000,-1.79015570,-0.00166363
-4.20000000,-1.69084320,-0.00162063
-4.20000000,-1.59103690,-0.00157217
-4.20000000,-1.49122890,-0.00151826
-4.20000000,-1.39148600,-0.00145871
-4.20000000,-1.29179740,-0.00139345
-4.20000000,-1.19212960,-0.00132242
-4.20000000,-1.09301700,-0.00124586
-4.20000000,-0.99333951,-0.00116289
-4.20000000,-0.89378031,-0.00107410
-4.20000000,-0.79425862,-0.00097915
-4.20000000,-0.69478556,-0.00087824
-4.20000000,-0.59531915,-0.00077119
-4.20000000,-0.49635388,-0.00065858
-4.20000000,-0.39697113,-0.00053928
-4.20000000,-0.29762479,-0.00041381
-4.20000000,-0.19831330,-0.00028208
-4.20000000,-0.09904232,-0.00014408
-4.20000000,-0.00015880,-0.00000024
-4.10000000,-4.98904570,-0.00185276
-4.10000000,-4.88897110,-0.00185042
-4.10000000,-4.78890160,-0.00184829
-4.10000000,-4.68930680,-0.00184608
-4.10000000,-4.58923710,-0.00184387
-4.10000000,-4.48916760,-0.00184154
-4.10000000,-4.38910850,-0.00183925
-4.10000000,-4.28901960,-0.00183686
-4.10000000,-4.18908470,-0.00183446
-4.10000000,-4.08953500,-0.00183188
-4.10000000,-3.98947720,-0.00182925
-4.10000000,-3.88943220,-0.00182647
-4.10000000,-3.78935870,-0.00182361
-4.10000000,-3.68923990,-0.00182065
-4.10000000,-3.58918600,-0.00181746
-4.10000000,-3.48964010,-0.00181421
-4.10000000,-3.38958480,-0.00181060
-4.10000000,-3.28951660,-0.00180670
-4.10000000,-3.18946370,-0.00180252
-4.10000000,-3.08934740,-0.00179787
-4.10000000,-2.98929080,-0.00179282
-4.10000000,-2.88977090,-0.00178710
-4.10000000,-2.78973250,-0.00178039
-4.10000000,-2.68969510,-0.00177275
-4.10000000,-2.58960860,-0.00176372
-4.10000000,-2.48958810,-0.00175304
-4.10000000,-2.38957430,-0.00174016
-4.10000000,-2.29011020,-0.00172507
-4.10000000,-2.19014420,-0.00170676
-4.10000000,-2.09025220,-0.00168507
-4.10000000,-1.99032900,-0.00165941
-4.10000000,-1.89042120,-0.00162957
-4.10000000,-1.79055380,-0.00159502
-4.10000000,-1.69121670,-0.00155580
-4.10000000,-1.59139090,-0.00151122
-4.10000000,-1.49156090,-0.00146117
-4.10000000,-1.39179210,-0.00140565
-4.10000000,-1.29208530,-0.00134446
-4.10000000,-1.19240060,-0.00127735
-4.10000000,-1.09325560,-0.00120481
-4.10000000,-0.99356288,-0.00112583
-4.10000000,-0.89397594,-0.00104082
-4.10000000,-0.79442847,-0.00094988
-4.10000000,-0.69492689,-0.00085273
-4.10000000,-0.59544542,-0.00074950
-4.10000000,-0.49646223,-0.00064061
-4.10000000,-0.39705802,-0.00052503
-4.10000000,-0.29768564,-0.00040318
-4.10000000,-0.19835491,-0.00027509
-4.10000000,-0.09906286,-0.00014059
-4.10000000,-0.00016109,-0.00000023
-4.00000000,-4.98962930,-0.00175274
-4.00000000,-4.88955980,-0.00175047
-4.00000000,-4.78948910,-0.00174850
-4.00000000,-4.68989430,-0.00174650
-4.00000000,-4.58981940,-0.00174432
-4.00000000,-4.48974990,-0.00174230
-4.00000000,-4.38968820,-0.00174005
-4.00000000,-4.28959930,-0.00173786
-4.00000000,-4.18966310,-0.00173556
-4.00000000,-4.09011460,-0.00173320
-4.00000000,-3.99005300,-0.00173071
-4.00000000,-3.89000800,-0.00172821
-4.00000000,-3.78992410,-0.00172557
-4.00000000,-3.68981180,-0.00172276
-4.00000000,-3.58975140,-0.00171992
-4.00000000,-3.49020560,-0.00171684
-4.00000000,-3.39015030,-0.00171367
-4.00000000,-3.29007420,-0.00171021
-4.00000000,-3.19002260,-0.00170652
-4.00000000,-3.08990250,-0.00170244
-4.00000000,-2.98984460,-0.00169794
-4.00000000,-2.89032080,-0.00169287
-4.00000000,-2.79027850,-0.00168719
-4.00000000,-2.69023450,-0.00168063
-4.00000000,-2.59013780,-0.00167294
-4.00000000,-2.49010810,-0.00166389
-4.00000000,-2.39008260,-0.00165300
-4.00000000,-2.29060820,-0.00164004
-4.00000000,-2.19062150,-0.00162434
-4.00000000,-2.09071900,-0.00160552
-4.00000000,-1.99077380,-0.00158313
-4.00000000,-1.89084780,-0.00155661
-4.00000000,-1.79095710,-0.00152573
-4.00000000,-1.69160050,-0.00149030
-4.00000000,-1.59175140,-0.00144946
-4.00000000,-1.49189930,-0.00140346
-4.00000000,-1.39210980,-0.00135185
-4.00000000,-1.29237060,-0.00129460
-4.00000000,-1.19266260,-0.00123162
-4.00000000,-1.09349430,-0.00116304
-4.00000000,-0.99377775,-0.00108810
-4.00000000,-0.89417183,-0.00100718
-4.00000000,-0.79460552,-0.00092010
-4.00000000,-0.69508156,-0.00082689
-4.00000000,-0.59557275,-0.00072755
