Vgs,Vds,Ids
-5.00000000,-4.99456250,-0.00090832
-5.00000000,-4.89448520,-0.00090792
-5.00000000,-4.79440280,-0.00090750
-5.00000000,-4.69479760,-0.00090707
-5.00000000,-4.59471500,-0.00090657
-5.00000000,-4.49463770,-0.00090608
-5.00000000,-4.39456560,-0.00090559
-5.00000000,-4.29446600,-0.00090495
-5.00000000,-4.19452240,-0.00090438
-5.00000000,-4.09496100,-0.00090368
-5.00000000,-3.99488890,-0.00090288
-5.00000000,-3.89483620,-0.00090197
-5.00000000,-3.79475230,-0.00090094
-5.00000000,-3.69461920,-0.00089967
-5.00000000,-3.59455360,-0.00089816
-5.00000000,-3.49500260,-0.00089620
-5.00000000,-3.39494210,-0.00089380
-5.00000000,-3.29486870,-0.00089082
-5.00000000,-3.19481190,-0.00088696
-5.00000000,-3.09469690,-0.00088210
-5.00000000,-2.99465070,-0.00087628
-5.00000000,-2.89513210,-0.00086927
-5.00000000,-2.79510010,-0.00086093
-5.00000000,-2.69507830,-0.00085122
-5.00000000,-2.59499700,-0.00084008
-5.00000000,-2.49499070,-0.00082746
-5.00000000,-2.39498340,-0.00081336
-5.00000000,-2.29551940,-0.00079778
-5.00000000,-2.19554820,-0.00078063
-5.00000000,-2.09563660,-0.00076187
-5.00000000,-1.99568500,-0.00074163
-5.00000000,-1.89572530,-0.00071969
-5.00000000,-1.79579950,-0.00069627
-5.00000000,-1.69638460,-0.00067134
-5.00000000,-1.59644990,-0.00064477
-5.00000000,-1.49648630,-0.00061658
-5.00000000,-1.39656840,-0.00058670
-5.00000000,-1.29668910,-0.00055529
-5.00000000,-1.19680080,-0.00052234
-5.00000000,-1.09743930,-0.00048800
-5.00000000,-0.99749464,-0.00045169
-5.00000000,-0.89763561,-0.00041389
-5.00000000,-0.79778424,-0.00037451
-5.00000000,-0.69795858,-0.00033349
-5.00000000,-0.59811879,-0.00029081
-5.00000000,-0.49875694,-0.00024673
-5.00000000,-0.39894417,-0.00020081
-5.00000000,-0.29914339,-0.00015311
-5.00000000,-0.19935101,-0.00010385
-5.00000000,-0.09957595,-0.00005274
-5.00000000,-0.00018272,-0.00000009
-4.90000000,-4.99477390,-0.00087228
-4.90000000,-4.89469920,-0.00087176
-4.90000000,-4.79461160,-0.00087136
-4.90000000,-4.69500640,-0.00087087
-4.90000000,-4.59492120,-0.00087050
-4.90000000,-4.49484520,-0.00087005
-4.90000000,-4.39477570,-0.00086954
-4.90000000,-4.29467610,-0.00086906
-4.90000000,-4.19473110,-0.00086841
-4.90000000,-4.09516970,-0.00086778
-4.90000000,-3.99509770,-0.00086711
-4.90000000,-3.89504110,-0.00086630
-4.90000000,-3.79495720,-0.00086543
-4.90000000,-3.69482410,-0.00086439
-4.90000000,-3.59475720,-0.00086307
-4.90000000,-3.49520620,-0.00086158
-4.90000000,-3.39513790,-0.00085965
-4.90000000,-3.29506190,-0.00085710
-4.90000000,-3.19500770,-0.00085392
-4.90000000,-3.09488500,-0.00084994
-4.90000000,-2.99482710,-0.00084496
-4.90000000,-2.89530850,-0.00083899
-4.90000000,-2.79527000,-0.00083169
-4.90000000,-2.69524300,-0.00082298
-4.90000000,-2.59515650,-0.00081302
-4.90000000,-2.49514250,-0.00080152
-4.90000000,-2.39512740,-0.00078852
-4.90000000,-2.29565940,-0.00077415
-4.90000000,-2.19568050,-0.00075811
-4.90000000,-2.09576500,-0.00074054
-4.90000000,-1.99579780,-0.00072133
-4.90000000,-1.89584070,-0.00070058
-4.90000000,-1.79589940,-0.00067834
-4.90000000,-1.69647800,-0.00065449
-4.90000000,-1.59653940,-0.00062899
-4.90000000,-1.49657320,-0.00060189
-4.90000000,-1.39665400,-0.00057303
-4.90000000,-1.29676180,-0.00054273
-4.90000000,-1.19686700,-0.00051080
-4.90000000,-1.09750020,-0.00047745
-4.90000000,-0.99755234,-0.00044223
-4.90000000,-0.89768769,-0.00040546
-4.90000000,-0.79783502,-0.00036705
-4.90000000,-0.69799966,-0.00032698
-4.90000000,-0.59815556,-0.00028528
-4.90000000,-0.49878874,-0.00024217
-4.90000000,-0.39896903,-0.00019716
-4.90000000,-0.29915922,-0.00015046
-4.90000000,-0.19936593,-0.00010201
-4.90000000,-0.09958151,-0.00005184
-4.90000000,-0.00018172,-0.00000006
-4.80000000,-4.99498400,-0.00083636
-4.80000000,-4.89490800,-0.00083600
-4.80000000,-4.79482040,-0.00083557
-4.80000000,-4.69521780,-0.00083517
-4.80000000,-4.59513520,-0.00083478
-4.80000000,-4.49505780,-0.00083435
-4.80000000,-4.39498970,-0.00083388
-4.80000000,-4.29488880,-0.00083338
-4.80000000,-4.19494120,-0.00083283
-4.80000000,-4.09537850,-0.00083232
-4.80000000,-3.99531040,-0.00083166
-4.80000000,-3.89524860,-0.00083102
-4.80000000,-3.79516470,-0.00083024
-4.80000000,-3.69503810,-0.00082932
-4.80000000,-3.59496860,-0.00082827
-4.80000000,-3.49541110,-0.00082703
-4.80000000,-3.39534540,-0.00082537
-4.80000000,-3.29526160,-0.00082339
-4.80000000,-3.19520480,-0.00082083
-4.80000000,-3.09507560,-0.00081759
-4.80000000,-2.99501640,-0.00081344
-4.80000000,-2.89549520,-0.00080831
-4.80000000,-2.79544510,-0.00080203
-4.80000000,-2.69541160,-0.00079443
-4.80000000,-2.59531870,-0.00078553
-4.80000000,-2.49529680,-0.00077521
-4.80000000,-2.39527780,-0.00076337
-4.80000000,-2.29580340,-0.00075014
-4.80000000,-2.19582180,-0.00073527
-4.80000000,-2.09589470,-0.00071882
-4.80000000,-1.99592880,-0.00070080
-4.80000000,-1.89595480,-0.00068118
-4.80000000,-1.79601090,-0.00065999
-4.80000000,-1.69658430,-0.00063737
-4.80000000,-1.59663800,-0.00061289
-4.80000000,-1.49665880,-0.00058691
-4.80000000,-1.39673820,-0.00055922
-4.80000000,-1.29684090,-0.00052996
-4.80000000,-1.19694090,-0.00049909
-4.80000000,-1.09756630,-0.00046679
-4.80000000,-0.99761031,-0.00043262
-4.80000000,-0.89773310,-0.00039688
-4.80000000,-0.79787872,-0.00035950
-4.80000000,-0.69803840,-0.00032040
-4.80000000,-0.59819089,-0.00027971
-4.80000000,-0.49881569,-0.00023750
-4.80000000,-0.39899821,-0.00019343
-4.80000000,-0.29917715,-0.00014763
-4.80000000,-0.19937496,-0.00010020
-4.80000000,-0.09958529,-0.00005095
-4.80000000,-0.00018422,-0.00000008
-4.70000000,-4.99518760,-0.00080103
-4.70000000,-4.89511680,-0.00080061
-4.70000000,-4.79503050,-0.00080028
-4.70000000,-4.69542660,-0.00079990
-4.70000000,-4.59534270,-0.00079951
-4.70000000,-4.49526140,-0.00079922
-4.70000000,-4.39519070,-0.00079869
-4.70000000,-4.29509370,-0.00079829
-4.70000000,-4.19514220,-0.00079778
-4.70000000,-4.09558080,-0.00079729
-4.70000000,-3.99551010,-0.00079672
-4.70000000,-3.89544960,-0.00079612
-4.70000000,-3.79536830,-0.00079547
-4.70000000,-3.69523130,-0.00079468
-4.70000000,-3.59516570,-0.00079380
-4.70000000,-3.49559910,-0.00079273
-4.70000000,-3.39553990,-0.00079142
-4.70000000,-3.29545870,-0.00078983
-4.70000000,-3.19539540,-0.00078781
-4.70000000,-3.09526360,-0.00078507
-4.70000000,-2.99519930,-0.00078168
-4.70000000,-2.89567290,-0.00077743
-4.70000000,-2.79562150,-0.00077208
-4.70000000,-2.69557880,-0.00076559
-4.70000000,-2.59548080,-0.00075771
-4.70000000,-2.49545370,-0.00074849
-4.70000000,-2.39543210,-0.00073787
-4.70000000,-2.29594730,-0.00072577
-4.70000000,-2.19595280,-0.00071203
-4.70000000,-2.09602310,-0.00069679
-4.70000000,-1.99604680,-0.00067996
-4.70000000,-1.89606760,-0.00066144
-4.70000000,-1.79611860,-0.00064145
-4.70000000,-1.69668680,-0.00061993
-4.70000000,-1.59672870,-0.00059659
-4.70000000,-1.49675470,-0.00057170
-4.70000000,-1.39681480,-0.00054516
-4.70000000,-1.29691740,-0.00051701
-4.70000000,-1.19701090,-0.00048723
-4.70000000,-1.09762730,-0.00045595
-4.70000000,-0.99766527,-0.00042282
-4.70000000,-0.89778701,-0.00038814
-4.70000000,-0.79792177,-0.00035175
-4.70000000,-0.69807687,-0.00031373
-4.70000000,-0.59822452,-0.00027400
-4.70000000,-0.49884317,-0.00023277
-4.70000000,-0.39901457,-0.00018969
-4.70000000,-0.29919730,-0.00014491
-4.70000000,-0.19938516,-0.00009841
-4.70000000,-0.09959547,-0.00005000
-4.70000000,-0.00018478,-0.00000009
-4.60000000,-4.99539640,-0.00076624
-4.60000000,-4.89531780,-0.00076582
-4.60000000,-4.79523020,-0.00076556
-4.60000000,-4.69562890,-0.00076514
-4.60000000,-4.59554500,-0.00076478
-4.60000000,-4.49546250,-0.00076447
-4.60000000,-4.39539170,-0.00076396
-4.60000000,-4.29529340,-0.00076367
-4.60000000,-4.19534840,-0.00076320
-4.60000000,-4.09578320,-0.00076276
-4.60000000,-3.99571370,-0.00076223
-4.60000000,-3.89565320,-0.00076167
-4.60000000,-3.79556540,-0.00076116
-4.60000000,-3.69543230,-0.00076050
-4.60000000,-3.59536540,-0.00075963
-4.60000000,-3.49580790,-0.00075884
-4.60000000,-3.39573710,-0.00075770
-4.60000000,-3.29565580,-0.00075643
-4.60000000,-3.19559000,-0.00075478
-4.60000000,-3.09545170,-0.00075257
-4.60000000,-2.99538600,-0.00074994
-4.60000000,-2.89585050,-0.00074648
-4.60000000,-2.79579650,-0.00074200
-4.60000000,-2.69575000,-0.00073643
-4.60000000,-2.59564420,-0.00072966
-4.60000000,-2.49561060,-0.00072159
-4.60000000,-2.39557740,-0.00071202
-4.60000000,-2.29608350,-0.00070105
-4.60000000,-2.19608640,-0.00068850
-4.60000000,-2.09615150,-0.00067442
-4.60000000,-1.99617130,-0.00065876
-4.60000000,-1.89619080,-0.00064154
-4.60000000,-1.79623010,-0.00062268
-4.60000000,-1.69678660,-0.00060224
-4.60000000,-1.59682730,-0.00058014
-4.60000000,-1.49684030,-0.00055630
-4.60000000,-1.39689910,-0.00053090
-4.60000000,-1.29699000,-0.00050391
-4.60000000,-1.19707970,-0.00047519
-4.60000000,-1.09768950,-0.00044499
-4.60000000,-0.99772049,-0.00041292
-4.60000000,-0.89783621,-0.00037934
-4.60000000,-0.79796404,-0.00034396
-4.60000000,-0.69811469,-0.00030694
-4.60000000,-0.59825095,-0.00026825
-4.60000000,-0.49886869,-0.00022806
-4.60000000,-0.39903629,-0.00018594
-4.60000000,-0.29920541,-0.00014211
-4.60000000,-0.19939602,-0.00009646
-4.60000000,-0.09959717,-0.00004914
-4.60000000,-0.00018501,-0.00000007
-4.50000000,-4.99559480,-0.00073202
-4.50000000,-4.89551880,-0.00073160
-4.50000000,-4.79543250,-0.00073136
-4.50000000,-4.69582990,-0.00073103
-4.50000000,-4.59574210,-0.00073067
-4.50000000,-4.49566740,-0.00073036
-4.50000000,-4.39559530,-0.00072998
-4.50000000,-4.29549700,-0.00072962
-4.50000000,-4.19554690,-0.00072916
-4.50000000,-4.09598290,-0.00072877
-4.50000000,-3.99591340,-0.00072837
-4.50000000,-3.89585030,-0.00072784
-4.50000000,-3.79576510,-0.00072736
-4.50000000,-3.69563070,-0.00072682
-4.50000000,-3.59556250,-0.00072613
-4.50000000,-3.49599860,-0.00072538
-4.50000000,-3.39592900,-0.00072447
-4.50000000,-3.29584520,-0.00072341
-4.50000000,-3.19577670,-0.00072206
-4.50000000,-3.09564100,-0.00072036
-4.50000000,-2.99556890,-0.00071818
-4.50000000,-2.89603470,-0.00071543
-4.50000000,-2.79597680,-0.00071178
-4.50000000,-2.69592120,-0.00070708
-4.50000000,-2.59581150,-0.00070126
-4.50000000,-2.49577400,-0.00069433
-4.50000000,-2.39573040,-0.00068588
-4.50000000,-2.29623390,-0.00067608
-4.50000000,-2.19622900,-0.00066467
-4.50000000,-2.09628250,-0.00065178
-4.50000000,-1.99629450,-0.00063729
-4.50000000,-1.89630370,-0.00062125
-4.50000000,-1.79634030,-0.00060351
-4.50000000,-1.69688650,-0.00058427
-4.50000000,-1.59692710,-0.00056336
-4.50000000,-1.49692980,-0.00054075
-4.50000000,-1.39698460,-0.00051645
-4.50000000,-1.29706520,-0.00049052
-4.50000000,-1.19714580,-0.00046294
-4.50000000,-1.09775830,-0.00043384
-4.50000000,-0.99778265,-0.00040285
-4.50000000,-0.89789170,-0.00037028
-4.50000000,-0.79801390,-0.00033601
-4.50000000,-0.69815630,-0.00030011
-4.50000000,-0.59828903,-0.00026236
-4.50000000,-0.49889892,-0.00022317
-4.50000000,-0.39905841,-0.00018200
-4.50000000,-0.29922478,-0.00013926
-4.50000000,-0.19940806,-0.00009460
-4.50000000,-0.09960321,-0.00004816
-4.50000000,-0.00018544,-0.00000006
-4.40000000,-4.99579190,-0.00069838
-4.40000000,-4.89571470,-0.00069805
-4.40000000,-4.79562960,-0.00069776
-4.40000000,-4.69602060,-0.00069742
-4.40000000,-4.59594180,-0.00069718
-4.40000000,-4.49586190,-0.00069683
-4.40000000,-4.39578980,-0.00069642
-4.40000000,-4.29568890,-0.00069606
-4.40000000,-4.19574140,-0.00069568
-4.40000000,-4.09617740,-0.00069539
-4.40000000,-3.99610790,-0.00069490
-4.40000000,-3.89605130,-0.00069451
-4.40000000,-3.79596350,-0.00069406
-4.40000000,-3.69582650,-0.00069357
-4.40000000,-3.59575840,-0.00069291
-4.40000000,-3.49619830,-0.00069235
-4.40000000,-3.39612610,-0.00069160
-4.40000000,-3.29603840,-0.00069072
-4.40000000,-3.19597250,-0.00068960
-4.40000000,-3.09582780,-0.00068822
-4.40000000,-2.99575820,-0.00068649
-4.40000000,-2.89621370,-0.00068435
-4.40000000,-2.79614930,-0.00068139
-4.40000000,-2.69609370,-0.00067761
-4.40000000,-2.59598000,-0.00067276
-4.40000000,-2.49593220,-0.00066678
-4.40000000,-2.39588730,-0.00065944
-4.40000000,-2.29638180,-0.00065083
-4.40000000,-2.19637040,-0.00064055
-4.40000000,-2.09642250,-0.00062884
-4.40000000,-1.99642680,-0.00061555
-4.40000000,-1.89642810,-0.00060066
-4.40000000,-1.79645830,-0.00058416
-4.40000000,-1.69699800,-0.00056617
-4.40000000,-1.59702180,-0.00054631
-4.40000000,-1.49702710,-0.00052491
-4.40000000,-1.39707670,-0.00050174
-4.40000000,-1.29714820,-0.00047696
-4.40000000,-1.19721970,-0.00045054
-4.40000000,-1.09782440,-0.00042250
-4.40000000,-0.99784180,-0.00039267
-4.40000000,-0.89794273,-0.00036117
-4.40000000,-0.79805970,-0.00032793
-4.40000000,-0.69819739,-0.00029306
-4.40000000,-0.59832580,-0.00025639
-4.40000000,-0.49892640,-0.00021825
-4.40000000,-0.39907882,-0.00017816
-4.40000000,-0.29924101,-0.00013633
-4.40000000,-0.19942089,-0.00009266
-4.40000000,-0.09961070,-0.00004721
-4.40000000,-0.00018136,-0.00000013
-4.30000000,-4.99598900,-0.00066540
-4.30000000,-4.89591050,-0.00066502
-4.30000000,-4.79582420,-0.00066470
-4.30000000,-4.69621900,-0.00066443
-4.30000000,-4.59613120,-0.00066420
-4.30000000,-4.49605640,-0.00066387
-4.30000000,-4.39598050,-0.00066356
-4.30000000,-4.29588350,-0.00066328
-4.30000000,-4.19593850,-0.00066285
-4.30000000,-4.09637320,-0.00066244
-4.30000000,-3.99630120,-0.00066217
-4.30000000,-3.89623940,-0.00066176
-4.30000000,-3.79615160,-0.00066136
-4.30000000,-3.69601720,-0.00066086
-4.30000000,-3.59594510,-0.00066038
-4.30000000,-3.49638500,-0.00065986
-4.30000000,-3.39631550,-0.00065921
-4.30000000,-3.29622390,-0.00065853
-4.30000000,-3.19615020,-0.00065768
-4.30000000,-3.09601320,-0.00065652
-4.30000000,-2.99593980,-0.00065512
-4.30000000,-2.89639000,-0.00065335
-4.30000000,-2.79633210,-0.00065107
-4.30000000,-2.69627140,-0.00064796
-4.30000000,-2.59614730,-0.00064403
-4.30000000,-2.49609300,-0.00063905
-4.30000000,-2.39603900,-0.00063275
-4.30000000,-2.29653740,-0.00062519
-4.30000000,-2.19651820,-0.00061614
-4.30000000,-2.09655350,-0.00060557
-4.30000000,-1.99654870,-0.00059353
-4.30000000,-1.89655260,-0.00057988
-4.30000000,-1.79657640,-0.00056452
-4.30000000,-1.69710560,-0.00054771
-4.30000000,-1.59712690,-0.00052908
-4.30000000,-1.49712430,-0.00050885
-4.30000000,-1.39715970,-0.00048689
-4.30000000,-1.29723120,-0.00046325
-4.30000000,-1.19730140,-0.00043790
-4.30000000,-1.09789570,-0.00041106
-4.30000000,-0.99790278,-0.00038229
-4.30000000,-0.89799743,-0.00035190
-4.30000000,-0.79810667,-0.00031984
-4.30000000,-0.69823809,-0.00028594
-4.30000000,-0.59836113,-0.00025043
-4.30000000,-0.49895453,-0.00021327
-4.30000000,-0.39910604,-0.00017426
-4.30000000,-0.29926495,-0.00013337
-4.30000000,-0.19943175,-0.00009069
-4.30000000,-0.09961729,-0.00004623
-4.30000000,-0.00018410,-0.00000009
-4.20000000,-4.99617840,-0.00063293
-4.20000000,-4.89609720,-0.00063265
-4.20000000,-4.79601220,-0.00063237
-4.20000000,-4.69640310,-0.00063211
-4.20000000,-4.59632440,-0.00063183
-4.20000000,-4.49624190,-0.00063157
-4.20000000,-4.39617370,-0.00063130
-4.20000000,-4.29606760,-0.00063096
-4.20000000,-4.19612270,-0.00063068
-4.20000000,-4.09656520,-0.00063033
-4.20000000,-3.99649180,-0.00063002
-4.20000000,-3.89643000,-0.00062960
-4.20000000,-3.79633830,-0.00062923
-4.20000000,-3.69620910,-0.00062884
-4.20000000,-3.59613450,-0.00062839
-4.20000000,-3.49657180,-0.00062789
-4.20000000,-3.39650740,-0.00062731
-4.20000000,-3.29641190,-0.00062674
-4.20000000,-3.19634730,-0.00062593
-4.20000000,-3.09620000,-0.00062510
-4.20000000,-2.99612130,-0.00062402
-4.20000000,-2.89657420,-0.00062262
-4.20000000,-2.79650330,-0.00062082
-4.20000000,-2.69643740,-0.00061847
-4.20000000,-2.59632110,-0.00061525
-4.20000000,-2.49626030,-0.00061110
-4.20000000,-2.39620240,-0.00060591
-4.20000000,-2.29668520,-0.00059938
-4.20000000,-2.19666090,-0.00059148
-4.20000000,-2.09669360,-0.00058207
-4.20000000,-1.99668620,-0.00057126
-4.20000000,-1.89667200,-0.00055878
-4.20000000,-1.79668530,-0.00054469
-4.20000000,-1.69721980,-0.00052897
-4.20000000,-1.59723190,-0.00051157
-4.20000000,-1.49721770,-0.00049253
-4.20000000,-1.39724920,-0.00047180
-4.20000000,-1.29731550,-0.00044931
-4.20000000,-1.19737140,-0.00042515
-4.20000000,-1.09795800,-0.00039942
-4.20000000,-0.99796258,-0.00037182
-4.20000000,-0.89805173,-0.00034255
-4.20000000,-0.79815889,-0.00031152
-4.20000000,-0.69828192,-0.00027878
-4.20000000,-0.59839319,-0.00024422
-4.20000000,-0.49898633,-0.00020822
-4.20000000,-0.39912763,-0.00017018
-4.20000000,-0.29928393,-0.00013034
-4.20000000,-0.19944562,-0.00008874
-4.20000000,-0.09962155,-0.00004519
-4.20000000,-0.00018287,-0.00000009
-4.10000000,-4.99636120,-0.00060120
-4.10000000,-4.89628400,-0.00060088
-4.10000000,-4.79619640,-0.00060064
-4.10000000,-4.69658730,-0.00060040
-4.10000000,-4.59650980,-0.00060016
-4.10000000,-4.49643120,-0.00059987
-4.10000000,-4.39635530,-0.00059959
-4.10000000,-4.29625180,-0.00059933
-4.10000000,-4.19630940,-0.00059908
-4.10000000,-4.09674670,-0.00059875
-4.10000000,-3.99667470,-0.00059834
-4.10000000,-3.89661290,-0.00059806
-4.10000000,-3.79652510,-0.00059770
-4.10000000,-3.69639330,-0.00059731
-4.10000000,-3.59631600,-0.00059695
-4.10000000,-3.49675590,-0.00059645
-4.10000000,-3.39668250,-0.00059605
-4.10000000,-3.29659860,-0.00059554
-4.10000000,-3.19652630,-0.00059495
-4.10000000,-3.09638150,-0.00059419
-4.10000000,-2.99630030,-0.00059324
-4.10000000,-2.89675060,-0.00059222
-4.10000000,-2.79667840,-0.00059081
-4.10000000,-2.69661240,-0.00058894
-4.10000000,-2.59648060,-0.00058646
-4.10000000,-2.49641850,-0.00058320
-4.10000000,-2.39635680,-0.00057878
-4.10000000,-2.29683700,-0.00057337
-4.10000000,-2.19680350,-0.00056657
-4.10000000,-2.09683360,-0.00055837
-4.10000000,-1.99681710,-0.00054863
-4.10000000,-1.89679520,-0.00053736
-4.10000000,-1.79680070,-0.00052455
-4.10000000,-1.69732740,-0.00051003
-4.10000000,-1.59733310,-0.00049390
-4.10000000,-1.49731370,-0.00047600
-4.10000000,-1.39733740,-0.00045643
-4.10000000,-1.29739200,-0.00043523
-4.10000000,-1.19744800,-0.00041221
-4.10000000,-1.09802930,-0.00038763
-4.10000000,-0.99802552,-0.00036121
-4.10000000,-0.89810879,-0.00033305
-4.10000000,-0.79820495,-0.00030311
-4.10000000,-0.69832458,-0.00027152
-4.10000000,-0.59843167,-0.00023805
-4.10000000,-0.49901669,-0.00020308
-4.10000000,-0.39915014,-0.00016609
-4.10000000,-0.29929479,-0.00012733
-4.10000000,-0.19945085,-0.00008673
-4.10000000,-0.09962552,-0.00004424
-4.10000000,-0.00018315,-0.00000012
-4.00000000,-4.99654410,-0.00057001
-4.00000000,-4.89646680,-0.00056975
-4.00000000,-4.79638310,-0.00056955
-4.00000000,-4.69677530,-0.00056934
-4.00000000,-4.59669140,-0.00056914
-4.00000000,-4.49661530,-0.00056881
-4.00000000,-4.39653680,-0.00056863
-4.00000000,-4.29643590,-0.00056832
-4.00000000,-4.19649100,-0.00056800
-4.00000000,-4.09692570,-0.00056773
-4.00000000,-3.99685490,-0.00056745
-4.00000000,-3.89679830,-0.00056719
-4.00000000,-3.79670400,-0.00056688
-4.00000000,-3.69657090,-0.00056653
-4.00000000,-3.59649760,-0.00056616
-4.00000000,-3.49693880,-0.00056581
-4.00000000,-3.39686010,-0.00056535
-4.00000000,-3.29677370,-0.00056493
-4.00000000,-3.19669620,-0.00056438
-4.00000000,-3.09655790,-0.00056376
-4.00000000,-2.99647790,-0.00056308
-4.00000000,-2.89693210,-0.00056219
-4.00000000,-2.79685350,-0.00056108
-4.00000000,-2.69678750,-0.00055966
-4.00000000,-2.59665050,-0.00055773
-4.00000000,-2.49658190,-0.00055508
-4.00000000,-2.39651630,-0.00055160
-4.00000000,-2.29698740,-0.00054713
-4.00000000,-2.19695270,-0.00054135
-4.00000000,-2.09697110,-0.00053435
-4.00000000,-1.99694940,-0.00052579
-4.00000000,-1.89692480,-0.00051572
-4.00000000,-1.79692130,-0.00050409
-4.00000000,-1.69743630,-0.00049084
-4.00000000,-1.59743810,-0.00047597
-4.00000000,-1.49740830,-0.00045932
-4.00000000,-1.39743080,-0.00044091
-4.00000000,-1.29747890,-0.00042084
-4.00000000,-1.19752320,-0.00039905
-4.00000000,-1.09809680,-0.00037564
-4.00000000,-0.99808912,-0.00035040
-4.00000000,-0.89816231,-0.00032343
-4.00000000,-0.79825729,-0.00029461
-4.00000000,-0.69836423,-0.00026410
-4.00000000,-0.59847158,-0.00023185
